(1763966245.668553) vcan0 123#0C80
(1763966245.669137) vcan0 310#00000000
(1763966245.670063) vcan0 240#0000
(1763966245.672171) vcan0 500#0D0E0F10
(1763966245.688889) vcan0 123#0BD0
(1763966245.709682) vcan0 123#0BD0
(1763966245.721154) vcan0 240#0000
(1763966245.730381) vcan0 123#0BD0
(1763966245.751414) vcan0 123#0BD0
(1763966245.772182) vcan0 310#00000000
(1763966245.772660) vcan0 240#0000
(1763966245.772984) vcan0 123#0BD0
(1763966245.793358) vcan0 123#0CA8
(1763966245.814294) vcan0 123#0CA8
(1763966245.824423) vcan0 240#0000
(1763966245.835537) vcan0 123#0CA8
(1763966245.856162) vcan0 123#0CA8
(1763966245.875283) vcan0 310#00000000
(1763966245.875809) vcan0 240#0000
(1763966245.877166) vcan0 123#0CA8
(1763966245.898232) vcan0 123#0D10
(1763966245.919041) vcan0 123#0D10
(1763966245.927876) vcan0 240#0000
(1763966245.939609) vcan0 123#0D10
(1763966245.960824) vcan0 123#0D10
(1763966245.978375) vcan0 310#00000000
(1763966245.979226) vcan0 240#0000
(1763966245.981943) vcan0 123#0C1C
(1763966246.003526) vcan0 123#0C1C
(1763966246.024424) vcan0 123#0C1C
(1763966246.030537) vcan0 240#0000
(1763966246.045539) vcan0 123#0C1C
(1763966246.066646) vcan0 123#0C1C
(1763966246.081501) vcan0 310#00000000
(1763966246.082054) vcan0 240#0000
(1763966246.087735) vcan0 123#0BD8
(1763966246.108589) vcan0 123#0BD8
(1763966246.129783) vcan0 123#0BD8
(1763966246.134161) vcan0 240#0000
(1763966246.151007) vcan0 123#0BD8
(1763966246.172194) vcan0 123#0BD8
(1763966246.184120) vcan0 310#00000000
(1763966246.185878) vcan0 240#0000
(1763966246.193003) vcan0 123#0D10
(1763966246.214108) vcan0 123#0D10
(1763966246.234941) vcan0 123#0D10
(1763966246.237703) vcan0 240#0000
(1763966246.256067) vcan0 123#0D10
(1763966246.276883) vcan0 123#0D10
(1763966246.287447) vcan0 310#00000000
(1763966246.289469) vcan0 240#0000
(1763966246.297983) vcan0 123#0D38
(1763966246.318910) vcan0 123#0D38
(1763966246.339958) vcan0 123#0D38
(1763966246.340765) vcan0 240#0000
(1763966246.360801) vcan0 123#0D38
(1763966246.381945) vcan0 123#0D38
(1763966246.390558) vcan0 310#00000000
(1763966246.392862) vcan0 240#0000
(1763966246.403111) vcan0 123#0BC8
(1763966246.424218) vcan0 123#0BC8
(1763966246.444334) vcan0 240#0000
(1763966246.444828) vcan0 123#0BC8
(1763966246.465813) vcan0 123#0BC8
(1763966246.487032) vcan0 123#0BC8
(1763966246.493699) vcan0 310#00000000
(1763966246.496238) vcan0 240#0000
(1763966246.507847) vcan0 123#0BF8
(1763966246.529056) vcan0 123#0BF8
(1763966246.548137) vcan0 240#0000
(1763966246.549620) vcan0 123#0BF8
(1763966246.570898) vcan0 123#0BF8
(1763966246.592027) vcan0 123#0BF8
(1763966246.596821) vcan0 310#00000000
(1763966246.599759) vcan0 240#0000
(1763966246.613134) vcan0 123#0BBC
(1763966246.634273) vcan0 123#0BBC
(1763966246.651689) vcan0 240#0000
(1763966246.655429) vcan0 123#0BBC
(1763966246.674212) vcan0 500#0D0E0F10
(1763966246.676556) vcan0 123#0BBC
(1763966246.697392) vcan0 123#0BBC
(1763966246.699941) vcan0 310#00000000
(1763966246.703639) vcan0 240#0000
(1763966246.718461) vcan0 123#0C38
(1763966246.739391) vcan0 123#0C38
(1763966246.755020) vcan0 240#0000
(1763966246.760587) vcan0 123#0C38
(1763966246.781729) vcan0 123#0C38
(1763966246.802892) vcan0 310#00000000
(1763966246.803379) vcan0 123#0C38
(1763966246.806610) vcan0 240#0000
(1763966246.824107) vcan0 123#0C78
(1763966246.845259) vcan0 123#0C78
(1763966246.858116) vcan0 240#0000
(1763966246.866382) vcan0 123#0C78
(1763966246.887515) vcan0 123#0C78
(1763966246.906062) vcan0 310#00000000
(1763966246.908631) vcan0 123#0C78
(1763966246.909587) vcan0 240#0000
(1763966246.929460) vcan0 123#0D00
(1763966246.950607) vcan0 123#0D00
(1763966246.961438) vcan0 240#0000
(1763966246.971467) vcan0 123#0D00
(1763966246.992682) vcan0 123#0D00
(1763966247.006396) vcan0 310#00000000
(1763966247.011441) vcan0 240#0000
(1763966247.013149) vcan0 123#0CA0
(1763966247.033874) vcan0 123#0CA0
(1763966247.055319) vcan0 123#0CA0
(1763966247.063427) vcan0 240#0000
(1763966247.076051) vcan0 123#0CA0
(1763966247.097264) vcan0 123#0CA0
(1763966247.108022) vcan0 310#00000000
(1763966247.114225) vcan0 240#0000
(1763966247.117995) vcan0 123#0D30
(1763966247.139251) vcan0 123#0D30
(1763966247.159920) vcan0 123#0D30
(1763966247.167017) vcan0 240#0000
(1763966247.181326) vcan0 123#0D30
(1763966247.202481) vcan0 123#0D30
(1763966247.210715) vcan0 310#00000000
(1763966247.218786) vcan0 240#0000
(1763966247.223275) vcan0 123#0C1C
(1763966247.244319) vcan0 123#0C1C
(1763966247.265533) vcan0 123#0C1C
(1763966247.270719) vcan0 240#0000
(1763966247.286685) vcan0 123#0C1C
(1763966247.307936) vcan0 123#0C1C
(1763966247.313634) vcan0 310#00000000
(1763966247.322578) vcan0 240#0000
(1763966247.328980) vcan0 123#0C28
(1763966247.350089) vcan0 123#0C28
(1763966247.370957) vcan0 123#0C28
(1763966247.374136) vcan0 240#0000
(1763966247.391986) vcan0 123#0C28
(1763966247.413293) vcan0 123#0D38
(1763966247.416717) vcan0 310#00000000
(1763966247.426001) vcan0 240#0000
(1763966247.434355) vcan0 123#0D38
(1763966247.455295) vcan0 123#0D38
(1763966247.476449) vcan0 123#0D38
(1763966247.476759) vcan0 240#0000
(1763966247.497514) vcan0 123#0D38
(1763966247.518658) vcan0 123#0C4C
(1763966247.519334) vcan0 310#00000000
(1763966247.528690) vcan0 240#0000
(1763966247.539492) vcan0 123#0C4C
(1763966247.560605) vcan0 123#0C4C
(1763966247.580270) vcan0 240#0000
(1763966247.581193) vcan0 123#0C4C
(1763966247.602658) vcan0 123#0C4C
(1763966247.622348) vcan0 310#00000000
(1763966247.623237) vcan0 123#0C14
(1763966247.631848) vcan0 240#0000
(1763966247.643997) vcan0 123#0C14
(1763966247.665192) vcan0 123#0C14
(1763966247.676810) vcan0 500#0D0E0F10
(1763966247.683738) vcan0 240#0000
(1763966247.686309) vcan0 123#0C14
(1763966247.707417) vcan0 123#0C14
(1763966247.725461) vcan0 310#00000000
(1763966247.728325) vcan0 123#0BEC
(1763966247.735609) vcan0 240#0000
(1763966247.749496) vcan0 123#0BEC
(1763966247.770323) vcan0 123#0BEC
(1763966247.787221) vcan0 240#0000
(1763966247.791441) vcan0 123#0BEC
(1763966247.812570) vcan0 123#0BEC
(1763966247.828580) vcan0 310#00000000
(1763966247.833679) vcan0 123#0C60
(1763966247.838982) vcan0 240#0000
(1763966247.854818) vcan0 123#0C60
(1763966247.875956) vcan0 123#0C60
(1763966247.890840) vcan0 240#0000
(1763966247.897086) vcan0 123#0C60
(1763966247.918327) vcan0 123#0C60
(1763966247.931713) vcan0 310#00000000
(1763966247.939032) vcan0 123#0BEC
(1763966247.942704) vcan0 240#0000
(1763966247.960257) vcan0 123#0BEC
(1763966247.981448) vcan0 123#0BEC
(1763966247.994392) vcan0 240#0000
(1763966248.002268) vcan0 123#0BEC
(1763966248.023380) vcan0 123#0BEC
(1763966248.035153) vcan0 310#00000000
(1763966248.044115) vcan0 123#0BC8
(1763966248.046252) vcan0 240#0000
(1763966248.065304) vcan0 123#0BC8
(1763966248.085580) vcan0 123#0BC8
(1763966248.097287) vcan0 240#0000
(1763966248.106779) vcan0 123#0BC8
(1763966248.127894) vcan0 123#0BC8
(1763966248.136120) vcan0 310#00000000
(1763966248.148405) vcan0 123#0BB8
(1763966248.148879) vcan0 240#0000
(1763966248.169612) vcan0 123#0BB8
(1763966248.190413) vcan0 123#0BB8
(1763966248.200486) vcan0 240#0000
(1763966248.211634) vcan0 123#0BB8
(1763966248.232707) vcan0 123#0BB8
(1763966248.239450) vcan0 310#00000000
(1763966248.252385) vcan0 240#0000
(1763966248.253231) vcan0 123#0CB0
(1763966248.274749) vcan0 123#0CB0
(1763966248.295960) vcan0 123#0CB0
(1763966248.304281) vcan0 240#0000
(1763966248.316868) vcan0 123#0CB0
(1763966248.337530) vcan0 123#0C78
(1763966248.342619) vcan0 310#00000000
(1763966248.355842) vcan0 240#0000
(1763966248.358622) vcan0 123#0C78
(1763966248.379549) vcan0 123#0C78
(1763966248.400661) vcan0 123#0C78
(1763966248.407723) vcan0 240#0000
(1763966248.421783) vcan0 123#0C78
(1763966248.442550) vcan0 123#0CD4
(1763966248.445575) vcan0 310#00000000
(1763966248.459938) vcan0 240#0000
(1763966248.463278) vcan0 123#0CD4
(1763966248.484510) vcan0 123#0CD4
(1763966248.505710) vcan0 123#0CD4
(1763966248.511489) vcan0 240#0000
(1763966248.526525) vcan0 123#0CD4
(1763966248.547540) vcan0 123#0C04
(1763966248.548396) vcan0 310#00000000
(1763966248.563386) vcan0 240#0000
(1763966248.568743) vcan0 123#0C04
(1763966248.589875) vcan0 123#0C04
(1763966248.611009) vcan0 123#0C04
(1763966248.615312) vcan0 240#0000
(1763966248.631907) vcan0 123#0C04
(1763966248.651498) vcan0 310#00000000
(1763966248.652576) vcan0 123#0C84
(1763966248.666969) vcan0 240#0000
(1763966248.673754) vcan0 123#0C84
(1763966248.677650) vcan0 500#0D0E0F10
(1763966248.694535) vcan0 123#0C84
(1763966248.715260) vcan0 123#0C84
(1763966248.718274) vcan0 240#0000
(1763966248.736059) vcan0 123#0C84
(1763966248.754302) vcan0 310#00000000
(1763966248.757297) vcan0 123#0C74
(1763966248.769947) vcan0 240#0000
(1763966248.778446) vcan0 123#0C74
(1763966248.799576) vcan0 123#0C74
(1763966248.821672) vcan0 240#0000
(1763966248.822242) vcan0 123#0C74
(1763966248.843701) vcan0 123#0C74
(1763966248.857332) vcan0 310#00000000
(1763966248.864626) vcan0 123#0CE8
(1763966248.873098) vcan0 240#0000
(1763966248.885522) vcan0 123#0CE8
(1763966248.906733) vcan0 123#0CE8
(1763966248.924711) vcan0 240#0000
(1763966248.927942) vcan0 123#0CE8
(1763966248.949000) vcan0 123#0D04
(1763966248.960638) vcan0 310#00000000
(1763966248.969810) vcan0 123#0D04
(1763966248.976342) vcan0 240#0000
(1763966248.990943) vcan0 123#0D04
(1763966249.012166) vcan0 123#0D04
(1763966249.028076) vcan0 240#0000
(1763966249.032906) vcan0 123#0D04
(1763966249.053916) vcan0 123#0C90
(1763966249.063936) vcan0 310#00000000
(1763966249.075156) vcan0 123#0C90
(1763966249.079878) vcan0 240#0000
(1763966249.095956) vcan0 123#0C90
(1763966249.117234) vcan0 123#0C90
(1763966249.131754) vcan0 240#0000
(1763966249.138246) vcan0 123#0C90
(1763966249.159372) vcan0 123#0D18
(1763966249.166901) vcan0 310#00000000
(1763966249.180177) vcan0 123#0D18
(1763966249.183456) vcan0 240#0000
(1763966249.201059) vcan0 123#0D18
(1763966249.222310) vcan0 123#0D18
(1763966249.234978) vcan0 240#0000
(1763966249.243414) vcan0 123#0D18
(1763966249.264574) vcan0 123#0BD4
(1763966249.270040) vcan0 310#00000000
(1763966249.285230) vcan0 123#0BD4
(1763966249.286209) vcan0 240#0000
(1763966249.306514) vcan0 123#0BD4
(1763966249.327723) vcan0 123#0BD4
(1763966249.338350) vcan0 240#0000
(1763966249.348548) vcan0 123#0BD4
(1763966249.369319) vcan0 123#0BD8
(1763966249.372945) vcan0 310#00000000
(1763966249.390117) vcan0 240#0000
(1763966249.390423) vcan0 123#0BD8
(1763966249.411510) vcan0 123#0BD8
(1763966249.432656) vcan0 123#0BD8
(1763966249.441941) vcan0 240#0000
(1763966249.453338) vcan0 123#0BD8
(1763966249.474084) vcan0 123#0BEC
(1763966249.475444) vcan0 310#00000000
(1763966249.493811) vcan0 240#0000
(1763966249.494709) vcan0 123#0BEC
(1763966249.516039) vcan0 123#0BEC
(1763966249.537117) vcan0 123#0BEC
(1763966249.545975) vcan0 240#0000
(1763966249.557979) vcan0 123#0BEC
(1763966249.578994) vcan0 123#0C48
(1763966249.579459) vcan0 310#00000000
(1763966249.597416) vcan0 240#0000
(1763966249.599425) vcan0 123#0C48
(1763966249.620099) vcan0 123#0C48
(1763966249.641064) vcan0 123#0C48
(1763966249.649362) vcan0 240#0000
(1763966249.661697) vcan0 123#0C48
(1763966249.682533) vcan0 310#00000000
(1763966249.682841) vcan0 123#0D10
(1763966249.690068) vcan0 500#0D0E0F10
(1763966249.701302) vcan0 240#0000
(1763966249.703905) vcan0 123#0D10
(1763966249.725035) vcan0 123#0D10
(1763966249.745869) vcan0 123#0D10
(1763966249.753124) vcan0 240#0000
(1763966249.767175) vcan0 123#0D10
(1763966249.785598) vcan0 310#00000000
(1763966249.788194) vcan0 123#0D04
(1763966249.804999) vcan0 240#0000
(1763966249.809411) vcan0 123#0D04
(1763966249.830332) vcan0 123#0D04
(1763966249.851282) vcan0 123#0D04
(1763966249.856559) vcan0 240#0000
(1763966249.872201) vcan0 123#0D04
(1763966249.888417) vcan0 310#00000000
(1763966249.893000) vcan0 123#0D0C
(1763966249.908131) vcan0 240#0000
(1763966249.914210) vcan0 123#0D0C
(1763966249.935442) vcan0 123#0D0C
(1763966249.956559) vcan0 123#0D0C
(1763966249.960010) vcan0 240#0000
(1763966249.977622) vcan0 123#0D0C
(1763966249.991451) vcan0 310#00000000
(1763966249.998390) vcan0 123#0C48
(1763966250.010694) vcan0 240#0000
(1763966250.019420) vcan0 123#0C48
(1763966250.040249) vcan0 123#0C48
(1763966250.061171) vcan0 123#0C48
(1763966250.061976) vcan0 240#0000
(1763966250.082021) vcan0 123#0C40
(1763966250.094584) vcan0 310#00000000
(1763966250.102754) vcan0 123#0C40
(1763966250.114069) vcan0 240#0000
(1763966250.123889) vcan0 123#0C40
(1763966250.144822) vcan0 123#0C40
(1763966250.165991) vcan0 123#0C40
(1763966250.166321) vcan0 240#0000
(1763966250.187120) vcan0 123#0D40
(1763966250.197605) vcan0 310#00000000
(1763966250.208361) vcan0 123#0D40
(1763966250.218115) vcan0 240#0000
(1763966250.229543) vcan0 123#0D40
(1763966250.250910) vcan0 123#0D40
(1763966250.269695) vcan0 240#0000
(1763966250.271995) vcan0 123#0D40
(1763966250.292841) vcan0 123#0D44
(1763966250.300694) vcan0 310#00000000
(1763966250.314045) vcan0 123#0D44
(1763966250.321361) vcan0 240#0000
(1763966250.335387) vcan0 123#0D44
(1763966250.356536) vcan0 123#0D44
(1763966250.373144) vcan0 240#0000
(1763966250.377458) vcan0 123#0D44
(1763966250.398575) vcan0 123#0BE4
(1763966250.403860) vcan0 310#00000000
(1763966250.419523) vcan0 123#0BE4
(1763966250.424932) vcan0 240#0000
(1763966250.440675) vcan0 123#0BE4
(1763966250.461448) vcan0 123#0BE4
(1763966250.476807) vcan0 240#0000
(1763966250.482567) vcan0 123#0BE4
(1763966250.503704) vcan0 123#0D2C
(1763966250.506891) vcan0 310#00000000
(1763966250.524931) vcan0 123#0D2C
(1763966250.528394) vcan0 240#0000
(1763966250.546174) vcan0 123#0D2C
(1763966250.566973) vcan0 123#0D2C
(1763966250.580380) vcan0 240#0000
(1763966250.588106) vcan0 123#0D2C
(1763966250.609309) vcan0 123#0CD4
(1763966250.609754) vcan0 310#00000000
(1763966250.630367) vcan0 123#0CD4
(1763966250.631736) vcan0 240#0000
(1763966250.651591) vcan0 123#0CD4
(1763966250.672594) vcan0 123#0CD4
(1763966250.683872) vcan0 240#0000
(1763966250.693715) vcan0 123#0CD4
(1763966250.700843) vcan0 500#0D0E0F10
(1763966250.712219) vcan0 310#00000000
(1763966250.714728) vcan0 123#0BCC
(1763966250.735549) vcan0 240#0000
(1763966250.735877) vcan0 123#0BCC
(1763966250.756920) vcan0 123#0BCC
(1763966250.778118) vcan0 123#0BCC
(1763966250.787383) vcan0 240#0000
(1763966250.798912) vcan0 123#0BCC
(1763966250.815423) vcan0 310#00000000
(1763966250.819759) vcan0 123#0C6C
(1763966250.839152) vcan0 240#0000
(1763966250.840667) vcan0 123#0C6C
(1763966250.861557) vcan0 123#0C6C
(1763966250.882505) vcan0 123#0C6C
(1763966250.890460) vcan0 240#0000
(1763966250.903635) vcan0 123#0C6C
(1763966250.918535) vcan0 310#00000000
(1763966250.924761) vcan0 123#0BD8
(1763966250.942334) vcan0 240#0000
(1763966250.946140) vcan0 123#0BD8
(1763966250.967374) vcan0 123#0BD8
(1763966250.988362) vcan0 123#0BD8
(1763966250.994301) vcan0 240#0000
(1763966251.009393) vcan0 123#0BD8
(1763966251.021119) vcan0 310#00000000
(1763966251.030461) vcan0 123#0D38
(1763966251.046186) vcan0 240#0000
(1763966251.051580) vcan0 123#0D38
(1763966251.072690) vcan0 123#0D38
(1763966251.093568) vcan0 123#0D38
(1763966251.098161) vcan0 240#0000
(1763966251.114770) vcan0 123#0C28
(1763966251.124327) vcan0 310#00000000
(1763966251.136012) vcan0 123#0C28
(1763966251.150112) vcan0 240#0000
(1763966251.157193) vcan0 123#0C28
(1763966251.178084) vcan0 123#0C28
(1763966251.199264) vcan0 123#0C28
(1763966251.201985) vcan0 240#0000
(1763966251.220415) vcan0 123#0C58
(1763966251.227473) vcan0 310#00000000
(1763966251.241353) vcan0 123#0C58
(1763966251.253495) vcan0 240#0000
(1763966251.262475) vcan0 123#0C58
(1763966251.283615) vcan0 123#0C58
(1763966251.304746) vcan0 123#0C58
(1763966251.305110) vcan0 240#0000
(1763966251.325582) vcan0 123#0C7C
(1763966251.330607) vcan0 310#00000000
(1763966251.346364) vcan0 123#0C7C
(1763966251.356723) vcan0 240#0000
(1763966251.367109) vcan0 123#0C7C
(1763966251.387892) vcan0 123#0C7C
(1763966251.408483) vcan0 240#0000
(1763966251.408806) vcan0 123#0C7C
(1763966251.429735) vcan0 123#0CD8
(1763966251.433572) vcan0 310#00000000
(1763966251.450968) vcan0 123#0CD8
(1763966251.460299) vcan0 240#0000
(1763966251.472183) vcan0 123#0CD8
(1763966251.493354) vcan0 123#0CD8
(1763966251.512181) vcan0 240#0000
(1763966251.514470) vcan0 123#0CD8
(1763966251.535596) vcan0 123#0C88
(1763966251.536461) vcan0 310#00000000
(1763966251.556399) vcan0 123#0C88
(1763966251.563758) vcan0 240#0000
(1763966251.577205) vcan0 123#0C88
(1763966251.598099) vcan0 123#0C88
(1763966251.615614) vcan0 240#0000
(1763966251.618949) vcan0 123#0C88
(1763966251.639688) vcan0 310#00000000
(1763966251.640115) vcan0 123#0C04
(1763966251.661354) vcan0 123#0C04
(1763966251.667598) vcan0 240#0000
(1763966251.682481) vcan0 123#0C04
(1763966251.703603) vcan0 123#0C04
(1763966251.710733) vcan0 500#0D0E0F10
(1763966251.719089) vcan0 240#0000
(1763966251.724618) vcan0 123#0C04
(1763966251.742544) vcan0 310#00000000
(1763966251.745831) vcan0 123#0D00
(1763966251.767006) vcan0 123#0D00
(1763966251.770909) vcan0 240#0000
(1763966251.788036) vcan0 123#0D00
(1763966251.809268) vcan0 123#0D00
(1763966251.822763) vcan0 240#0000
(1763966251.830372) vcan0 123#0D00
(1763966251.845463) vcan0 310#00000000
(1763966251.851248) vcan0 123#0C14
(1763966251.872374) vcan0 123#0C14
(1763966251.874627) vcan0 240#0000
(1763966251.893204) vcan0 123#0C14
(1763966251.914021) vcan0 123#0C14
(1763966251.926024) vcan0 240#0000
(1763966251.935278) vcan0 123#0C14
(1763966251.948198) vcan0 310#00000000
(1763966251.956290) vcan0 123#0C30
(1763966251.977517) vcan0 123#0C30
(1763966251.978049) vcan0 240#0000
(1763966251.998294) vcan0 123#0C30
(1763966252.019483) vcan0 123#0C30
(1763966252.029756) vcan0 240#0000
(1763966252.040676) vcan0 123#0C30
(1763966252.051461) vcan0 310#00000000
(1763966252.061739) vcan0 123#0C5C
(1763966252.081332) vcan0 240#0000
(1763966252.082493) vcan0 123#0C5C
(1763966252.103439) vcan0 123#0C5C
(1763966252.124575) vcan0 123#0C5C
(1763966252.132891) vcan0 240#0000
(1763966252.145421) vcan0 123#0D24
(1763966252.153000) vcan0 310#00000000
(1763966252.166633) vcan0 123#0D24
(1763966252.184372) vcan0 240#0000
(1763966252.186781) vcan0 123#0D24
(1763966252.207875) vcan0 123#0D24
(1763966252.228702) vcan0 123#0D24
(1763966252.235738) vcan0 240#0000
(1763966252.249841) vcan0 123#0C0C
(1763966252.255925) vcan0 310#00000000
(1763966252.270995) vcan0 123#0C0C
(1763966252.287755) vcan0 240#0000
(1763966252.292192) vcan0 123#0C0C
(1763966252.312993) vcan0 123#0C0C
(1763966252.334101) vcan0 123#0C0C
(1763966252.339336) vcan0 240#0000
(1763966252.355402) vcan0 123#0BF4
(1763966252.359044) vcan0 310#00000000
(1763966252.376362) vcan0 123#0BF4
(1763966252.390883) vcan0 240#0000
(1763966252.397497) vcan0 123#0BF4
(1763966252.418393) vcan0 123#0BF4
(1763966252.439500) vcan0 123#0BF4
(1763966252.442517) vcan0 240#0000
(1763966252.460321) vcan0 123#0CEC
(1763966252.462074) vcan0 310#00000000
(1763966252.481543) vcan0 123#0CEC
(1763966252.493974) vcan0 240#0000
(1763966252.502700) vcan0 123#0CEC
(1763966252.524157) vcan0 123#0CEC
(1763966252.544961) vcan0 123#0CEC
(1763966252.545492) vcan0 240#0000
(1763966252.565303) vcan0 310#00000000
(1763966252.565746) vcan0 123#0C54
(1763966252.586835) vcan0 123#0C54
(1763966252.596079) vcan0 240#0000
(1763966252.607769) vcan0 123#0C54
(1763966252.629104) vcan0 123#0C54
(1763966252.647714) vcan0 240#0000
(1763966252.650211) vcan0 123#0C54
(1763966252.668513) vcan0 310#00000000
(1763966252.671453) vcan0 123#0D30
(1763966252.692262) vcan0 123#0D30
(1763966252.699397) vcan0 240#0000
(1763966252.713379) vcan0 123#0D30
(1763966252.719931) vcan0 500#0D0E0F10
(1763966252.734423) vcan0 123#0D30
(1763966252.751219) vcan0 240#0000
(1763966252.755534) vcan0 123#0D30
(1763966252.771293) vcan0 310#00000000
(1763966252.776525) vcan0 123#0C74
(1763966252.797747) vcan0 123#0C74
(1763966252.802984) vcan0 240#0000
(1763966252.818652) vcan0 123#0C74
(1763966252.839780) vcan0 123#0C74
(1763966252.854851) vcan0 240#0000
(1763966252.860924) vcan0 123#0C74
(1763966252.874298) vcan0 310#00000000
(1763966252.882063) vcan0 123#0D38
(1763966252.902958) vcan0 123#0D38
(1763966252.906982) vcan0 240#0000
(1763966252.923790) vcan0 123#0D38
(1763966252.944893) vcan0 123#0D38
(1763966252.958665) vcan0 240#0000
(1763966252.966008) vcan0 123#0D38
(1763966252.977456) vcan0 310#00000000
(1763966252.987182) vcan0 123#0C38
(1763966253.008362) vcan0 123#0C38
(1763966253.010538) vcan0 240#0000
(1763966253.029478) vcan0 123#0C38
(1763966253.050963) vcan0 123#0C38
(1763966253.062548) vcan0 240#0000
(1763966253.071715) vcan0 123#0C38
(1763966253.080541) vcan0 310#00000000
(1763966253.092502) vcan0 123#0CB0
(1763966253.113712) vcan0 240#0000
(1763966253.114017) vcan0 123#0CB0
(1763966253.135224) vcan0 123#0CB0
(1763966253.156337) vcan0 123#0CB0
(1763966253.165606) vcan0 240#0000
(1763966253.176924) vcan0 123#0C50
(1763966253.183674) vcan0 310#00000000
(1763966253.198216) vcan0 123#0C50
(1763966253.217458) vcan0 240#0000
(1763966253.219366) vcan0 123#0C50
(1763966253.240212) vcan0 123#0C50
(1763966253.261058) vcan0 123#0C50
(1763966253.269217) vcan0 240#0000
(1763966253.282178) vcan0 123#0BEC
(1763966253.286488) vcan0 310#00000000
(1763966253.303026) vcan0 123#0BEC
(1763966253.320852) vcan0 240#0000
(1763966253.324200) vcan0 123#0BEC
(1763966253.345292) vcan0 123#0BEC
(1763966253.366331) vcan0 123#0BEC
(1763966253.372708) vcan0 240#0000
(1763966253.387478) vcan0 123#0CB0
(1763966253.389631) vcan0 310#00000000
(1763966253.408614) vcan0 123#0CB0
(1763966253.424207) vcan0 240#0000
(1763966253.429314) vcan0 123#0CB0
(1763966253.450131) vcan0 123#0CB0
(1763966253.471430) vcan0 123#0CB0
(1763966253.476007) vcan0 240#0000
(1763966253.492590) vcan0 123#0C24
(1763966253.493127) vcan0 310#00000000
(1763966253.513715) vcan0 123#0C24
(1763966253.527470) vcan0 240#0000
(1763966253.534547) vcan0 123#0C24
(1763966253.555750) vcan0 123#0C24
(1763966253.576757) vcan0 123#0C24
(1763966253.579302) vcan0 240#0000
(1763966253.595794) vcan0 310#00000000
(1763966253.597841) vcan0 123#0C64
(1763966253.618959) vcan0 123#0C64
(1763966253.630802) vcan0 240#0000
(1763966253.640061) vcan0 123#0C64
(1763966253.661156) vcan0 123#0C64
(1763966253.682072) vcan0 123#0C64
(1763966253.682411) vcan0 240#0000
(1763966253.698685) vcan0 310#00000000
(1763966253.703031) vcan0 123#0CB8
(1763966253.723969) vcan0 123#0CB8
(1763966253.728044) vcan0 500#0D0E0F10
(1763966253.734005) vcan0 240#0000
(1763966253.745156) vcan0 123#0CB8
(1763966253.766264) vcan0 123#0CB8
(1763966253.785894) vcan0 240#0000
(1763966253.786774) vcan0 123#0CB8
(1763966253.801632) vcan0 310#00000000
(1763966253.807679) vcan0 123#0C58
(1763966253.828759) vcan0 123#0C58
(1763966253.837681) vcan0 240#0000
(1763966253.849370) vcan0 123#0C58
(1763966253.870658) vcan0 123#0C58
(1763966253.889730) vcan0 240#0000
(1763966253.891791) vcan0 123#0C58
(1763966253.904381) vcan0 310#00000000
(1763966253.912563) vcan0 123#0D00
(1763966253.933554) vcan0 123#0D00
(1763966253.941585) vcan0 240#0000
(1763966253.954563) vcan0 123#0D00
(1763966253.975654) vcan0 123#0D00
(1763966253.993815) vcan0 240#0000
(1763966253.996190) vcan0 123#0D00
(1763966254.007483) vcan0 310#00000000
(1763966254.017420) vcan0 123#0CE8
(1763966254.038506) vcan0 123#0CE8
(1763966254.045487) vcan0 240#0000
(1763966254.059838) vcan0 123#0CE8
(1763966254.080612) vcan0 123#0CE8
(1763966254.097053) vcan0 240#0000
(1763966254.101690) vcan0 123#0CE8
(1763966254.110232) vcan0 310#00000000
(1763966254.122548) vcan0 123#0CB4
(1763966254.143455) vcan0 123#0CB4
(1763966254.148573) vcan0 240#0000
(1763966254.164707) vcan0 123#0CB4
(1763966254.185790) vcan0 123#0CB4
(1763966254.200018) vcan0 240#0000
(1763966254.206567) vcan0 123#0CEC
(1763966254.212975) vcan0 310#00000000
(1763966254.227502) vcan0 123#0CEC
(1763966254.248328) vcan0 123#0CEC
(1763966254.251581) vcan0 240#0000
(1763966254.269104) vcan0 123#0CEC
(1763966254.290189) vcan0 123#0CEC
(1763966254.302868) vcan0 240#0000
(1763966254.311454) vcan0 123#0D38
(1763966254.315912) vcan0 310#00000000
(1763966254.332328) vcan0 123#0D38
(1763966254.353236) vcan0 123#0D38
(1763966254.354105) vcan0 240#0000
(1763966254.374035) vcan0 123#0D38
(1763966254.394791) vcan0 123#0D38
(1763966254.405740) vcan0 240#0000
(1763966254.415877) vcan0 123#0BD0
(1763966254.418860) vcan0 310#00000000
(1763966254.436975) vcan0 123#0BD0
(1763966254.457718) vcan0 240#0000
(1763966254.458082) vcan0 123#0BD0
(1763966254.478893) vcan0 123#0BD0
(1763966254.499991) vcan0 123#0BD0
(1763966254.509200) vcan0 240#0000
(1763966254.520869) vcan0 123#0BE4
(1763966254.521441) vcan0 310#00000000
(1763966254.541729) vcan0 123#0BE4
(1763966254.560804) vcan0 240#0000
(1763966254.562741) vcan0 123#0BE4
(1763966254.583610) vcan0 123#0BE4
(1763966254.604396) vcan0 123#0BE4
(1763966254.612699) vcan0 240#0000
(1763966254.623989) vcan0 310#00000000
(1763966254.624969) vcan0 123#0C98
(1763966254.646288) vcan0 123#0C98
(1763966254.664531) vcan0 240#0000
(1763966254.667462) vcan0 123#0C98
(1763966254.688563) vcan0 123#0C98
(1763966254.709674) vcan0 123#0C98
(1763966254.716322) vcan0 240#0000
(1763966254.727398) vcan0 310#00000000
(1763966254.730640) vcan0 123#0D3C
(1763966254.734923) vcan0 500#0D0E0F10
(1763966254.751581) vcan0 123#0D3C
(1763966254.768089) vcan0 240#0000
(1763966254.772689) vcan0 123#0D3C
(1763966254.793744) vcan0 123#0D3C
(1763966254.814660) vcan0 123#0D3C
(1763966254.819891) vcan0 240#0000
(1763966254.830128) vcan0 310#00000000
(1763966254.835827) vcan0 123#0BF0
(1763966254.856581) vcan0 123#0BF0
(1763966254.871685) vcan0 240#0000
(1763966254.877660) vcan0 123#0BF0
(1763966254.898539) vcan0 123#0BF0
(1763966254.919725) vcan0 123#0BF0
(1763966254.923451) vcan0 240#0000
(1763966254.933154) vcan0 310#00000000
(1763966254.940811) vcan0 123#0CC0
(1763966254.961907) vcan0 123#0CC0
(1763966254.975432) vcan0 240#0000
(1763966254.982682) vcan0 123#0CC0
(1763966255.003779) vcan0 123#0CC0
(1763966255.024570) vcan0 123#0CC0
(1763966255.026929) vcan0 240#0000
(1763966255.035835) vcan0 310#00000000
(1763966255.045383) vcan0 123#0C78
(1763966255.066310) vcan0 123#0C78
(1763966255.078259) vcan0 240#0000
(1763966255.087233) vcan0 123#0C78
(1763966255.108313) vcan0 123#0C78
(1763966255.129635) vcan0 123#0C78
(1763966255.130186) vcan0 240#0000
(1763966255.138472) vcan0 310#00000000
(1763966255.150218) vcan0 123#0CE8
(1763966255.171354) vcan0 123#0CE8
(1763966255.181736) vcan0 240#0000
(1763966255.192408) vcan0 123#0CE8
(1763966255.213234) vcan0 123#0CE8
(1763966255.233590) vcan0 240#0000
(1763966255.233792) vcan0 123#0CE8
(1763966255.241116) vcan0 310#00000000
(1763966255.255234) vcan0 123#0C24
(1763966255.276204) vcan0 123#0C24
(1763966255.285333) vcan0 240#0000
(1763966255.297076) vcan0 123#0C24
(1763966255.318401) vcan0 123#0C24
(1763966255.337145) vcan0 240#0000
(1763966255.339500) vcan0 123#0C3C
(1763966255.344171) vcan0 310#00000000
(1763966255.360374) vcan0 123#0C3C
(1763966255.381464) vcan0 123#0C3C
(1763966255.388931) vcan0 240#0000
(1763966255.402612) vcan0 123#0C3C
(1763966255.423705) vcan0 123#0C3C
(1763966255.440751) vcan0 240#0000
(1763966255.444570) vcan0 123#0E1C
(1763966255.447248) vcan0 310#01000000
(1763966255.465263) vcan0 123#0E1C
(1763966255.486448) vcan0 123#0E1C
(1763966255.492205) vcan0 240#0000
(1763966255.507669) vcan0 123#0E1C
(1763966255.528804) vcan0 123#0E1C
(1763966255.544056) vcan0 240#0000
(1763966255.549964) vcan0 310#01000000
(1763966255.550291) vcan0 123#0FFC
(1763966255.571380) vcan0 123#0FFC
(1763966255.592151) vcan0 123#0FFC
(1763966255.595589) vcan0 240#0000
(1763966255.613251) vcan0 123#0FFC
(1763966255.634375) vcan0 123#0FFC
(1763966255.647247) vcan0 240#0000
(1763966255.652824) vcan0 310#01000000
(1763966255.655337) vcan0 123#11DC
(1763966255.676010) vcan0 123#11DC
(1763966255.697217) vcan0 123#11DC
(1763966255.698714) vcan0 240#0000
(1763966255.717990) vcan0 123#11DC
(1763966255.738804) vcan0 123#11DC
(1763966255.740660) vcan0 500#0D0E0F10
(1763966255.750764) vcan0 240#0000
(1763966255.755505) vcan0 310#01000000
(1763966255.759877) vcan0 123#13BC
(1763966255.780962) vcan0 123#13BC
(1763966255.802098) vcan0 123#13BC
(1763966255.802440) vcan0 240#0000
(1763966255.823291) vcan0 123#13BC
(1763966255.844368) vcan0 123#13BC
(1763966255.853955) vcan0 240#0000
(1763966255.858446) vcan0 310#01000000
(1763966255.865464) vcan0 123#159C
(1763966255.886493) vcan0 123#159C
(1763966255.905484) vcan0 240#0000
(1763966255.907449) vcan0 123#159C
(1763966255.928636) vcan0 123#159C
(1763966255.949726) vcan0 123#159C
(1763966255.956775) vcan0 240#0000
(1763966255.961400) vcan0 310#01000000
(1763966255.970582) vcan0 123#177C
(1763966255.991379) vcan0 123#177C
(1763966256.008410) vcan0 240#0000
(1763966256.012050) vcan0 123#177C
(1763966256.032983) vcan0 123#177C
(1763966256.054092) vcan0 123#177C
(1763966256.059919) vcan0 240#0000
(1763966256.064336) vcan0 310#01000000
(1763966256.074964) vcan0 123#195C
(1763966256.095813) vcan0 123#195C
(1763966256.110822) vcan0 240#0000
(1763966256.116868) vcan0 123#195C
(1763966256.137847) vcan0 123#195C
(1763966256.159043) vcan0 123#195C
(1763966256.162604) vcan0 240#0000
(1763966256.166116) vcan0 310#01000000
(1763966256.180137) vcan0 123#1B3C
(1763966256.201221) vcan0 123#1B3C
(1763966256.214388) vcan0 240#0000
(1763966256.222334) vcan0 123#1B3C
(1763966256.243430) vcan0 123#1B3C
(1763966256.263904) vcan0 123#1D1C
(1763966256.265704) vcan0 240#0000
(1763966256.269074) vcan0 310#01000000
(1763966256.285125) vcan0 123#1D1C
(1763966256.306167) vcan0 123#1D1C
(1763966256.317713) vcan0 240#0000
(1763966256.327381) vcan0 123#1D1C
(1763966256.348102) vcan0 123#1D1C
(1763966256.369221) vcan0 240#0000
(1763966256.369526) vcan0 123#1EFC
(1763966256.372028) vcan0 310#01000000
(1763966256.390661) vcan0 123#1EFC
(1763966256.411775) vcan0 123#1EFC
(1763966256.420982) vcan0 240#0000
(1763966256.432691) vcan0 123#1EFC
(1763966256.453958) vcan0 123#1EFC
(1763966256.472852) vcan0 240#0000
(1763966256.474473) vcan0 310#01000000
(1763966256.474781) vcan0 123#20DC
(1763966256.495570) vcan0 123#20DC
(1763966256.516673) vcan0 123#20DC
(1763966256.524629) vcan0 240#0000
(1763966256.537763) vcan0 123#20DC
(1763966256.558848) vcan0 123#20DC
(1763966256.576135) vcan0 240#0000
(1763966256.576890) vcan0 310#01000000
(1763966256.579943) vcan0 123#22BC
(1763966256.601153) vcan0 123#22BC
(1763966256.621960) vcan0 123#22BC
(1763966256.627981) vcan0 240#0000
(1763966256.642750) vcan0 123#22BC
(1763966256.663836) vcan0 123#22BC
(1763966256.679862) vcan0 310#01000000
(1763966256.680169) vcan0 240#0000
(1763966256.684928) vcan0 123#249C
(1763966256.705772) vcan0 123#249C
(1763966256.726873) vcan0 123#249C
(1763966256.731950) vcan0 240#0000
(1763966256.745593) vcan0 500#0D0E0F10
(1763966256.747973) vcan0 123#249C
(1763966256.769157) vcan0 123#249C
(1763966256.782846) vcan0 310#01000000
(1763966256.783449) vcan0 240#0000
(1763966256.790711) vcan0 123#267C
(1763966256.811790) vcan0 123#267C
(1763966256.832882) vcan0 123#267C
(1763966256.835124) vcan0 240#0000
(1763966256.853963) vcan0 123#267C
(1763966256.875349) vcan0 123#267C
(1763966256.885799) vcan0 310#01000000
(1763966256.886320) vcan0 240#0000
(1763966256.896365) vcan0 123#285C
(1763966256.917335) vcan0 123#285C
(1763966256.936768) vcan0 240#0000
(1763966256.937448) vcan0 123#285C
(1763966256.958755) vcan0 123#285C
(1763966256.979528) vcan0 123#285C
(1763966256.987677) vcan0 310#01000000
(1763966256.988116) vcan0 240#0000
(1763966257.000493) vcan0 123#2A3C
(1763966257.021298) vcan0 123#2A3C
(1763966257.039824) vcan0 240#0000
(1763966257.042366) vcan0 123#2A3C
(1763966257.063448) vcan0 123#2A3C
(1763966257.084527) vcan0 123#2A3C
(1763966257.090639) vcan0 310#01000000
(1763966257.091222) vcan0 240#0000
(1763966257.105373) vcan0 123#2C1C
(1763966257.126480) vcan0 123#2C1C
(1763966257.143394) vcan0 240#0000
(1763966257.147576) vcan0 123#2C1C
(1763966257.168746) vcan0 123#2C1C
(1763966257.189887) vcan0 123#2C1C
(1763966257.193572) vcan0 310#01000000
(1763966257.194780) vcan0 240#0000
(1763966257.211022) vcan0 123#2DFC
(1763966257.232189) vcan0 123#2DFC
(1763966257.246582) vcan0 240#0000
(1763966257.252976) vcan0 123#2DFC
(1763966257.274072) vcan0 123#2DFC
(1763966257.295213) vcan0 123#2FDC
(1763966257.295917) vcan0 310#01000000
(1763966257.298368) vcan0 240#0000
(1763966257.316342) vcan0 123#2FDC
(1763966257.337127) vcan0 123#2FDC
(1763966257.350140) vcan0 240#0000
(1763966257.358298) vcan0 123#2FDC
(1763966257.379391) vcan0 123#2FDC
(1763966257.399165) vcan0 310#01000000
(1763966257.399857) vcan0 123#31BC
(1763966257.401755) vcan0 240#0000
(1763966257.421195) vcan0 123#31BC
(1763966257.442370) vcan0 123#31BC
(1763966257.453764) vcan0 240#0000
(1763966257.463534) vcan0 123#31BC
(1763966257.484599) vcan0 123#31BC
(1763966257.502005) vcan0 310#01000000
(1763966257.505763) vcan0 240#0000
(1763966257.506508) vcan0 123#339C
(1763966257.527326) vcan0 123#339C
(1763966257.548490) vcan0 123#339C
(1763966257.557700) vcan0 240#0000
(1763966257.569450) vcan0 123#339C
(1763966257.590806) vcan0 123#339C
(1763966257.604521) vcan0 310#01000000
(1763966257.609210) vcan0 240#0000
(1763966257.611909) vcan0 123#357C
(1763966257.632731) vcan0 123#357C
(1763966257.653841) vcan0 123#357C
(1763966257.660742) vcan0 240#0000
(1763966257.674924) vcan0 123#357C
(1763966257.695846) vcan0 123#357C
(1763966257.707495) vcan0 310#02000000
(1763966257.711381) vcan0 240#0000
(1763966257.717022) vcan0 123#27BC
(1763966257.738150) vcan0 123#27BC
(1763966257.749805) vcan0 500#0D0E0F10
(1763966257.759316) vcan0 123#27BC
(1763966257.762785) vcan0 240#0000
(1763966257.780447) vcan0 123#27BC
(1763966257.801612) vcan0 123#27BC
(1763966257.810501) vcan0 310#02000000
(1763966257.814401) vcan0 240#0000
(1763966257.822585) vcan0 123#299C
(1763966257.843685) vcan0 123#299C
(1763966257.864818) vcan0 123#299C
(1763966257.865632) vcan0 240#0000
(1763966257.885985) vcan0 123#299C
(1763966257.907183) vcan0 123#299C
(1763966257.913445) vcan0 310#02000000
(1763966257.917266) vcan0 240#0000
(1763966257.927941) vcan0 123#2B7C
(1763966257.948698) vcan0 123#2B7C
(1763966257.968734) vcan0 240#0000
(1763966257.969234) vcan0 123#2B7C
(1763966257.990599) vcan0 123#2B7C
(1763966258.011672) vcan0 123#2B7C
(1763966258.016407) vcan0 310#02000000
(1763966258.020391) vcan0 240#0000
(1763966258.032219) vcan0 123#2D5C
(1763966258.053070) vcan0 123#2D5C
(1763966258.072193) vcan0 240#0000
(1763966258.074067) vcan0 123#2D5C
(1763966258.095253) vcan0 123#2D5C
(1763966258.116186) vcan0 123#2D5C
(1763966258.119464) vcan0 310#02000000
(1763966258.124045) vcan0 240#0000
(1763966258.137420) vcan0 123#2F3C
(1763966258.158230) vcan0 123#2F3C
(1763966258.175617) vcan0 240#0000
(1763966258.179430) vcan0 123#2F3C
(1763966258.200621) vcan0 123#2F3C
(1763966258.221896) vcan0 123#311C
(1763966258.222750) vcan0 310#02000000
(1763966258.227456) vcan0 240#0000
(1763966258.242968) vcan0 123#311C
(1763966258.264141) vcan0 123#311C
(1763966258.279292) vcan0 240#0000
(1763966258.285307) vcan0 123#311C
(1763966258.306101) vcan0 123#311C
(1763966258.324984) vcan0 310#02000000
(1763966258.326507) vcan0 123#32FC
(1763966258.330999) vcan0 240#0000
(1763966258.347438) vcan0 123#32FC
(1763966258.368525) vcan0 123#32FC
(1763966258.382787) vcan0 240#0000
(1763966258.389324) vcan0 123#32FC
(1763966258.410530) vcan0 123#32FC
(1763966258.427653) vcan0 310#02000000
(1763966258.431614) vcan0 123#34DC
(1763966258.434567) vcan0 240#0000
(1763966258.452690) vcan0 123#34DC
(1763966258.473790) vcan0 123#34DC
(1763966258.486135) vcan0 240#0000
(1763966258.494932) vcan0 123#34DC
(1763966258.515983) vcan0 123#34DC
(1763966258.530124) vcan0 310#03000000
(1763966258.537518) vcan0 123#271C
(1763966258.538023) vcan0 240#0000
(1763966258.557823) vcan0 123#271C
(1763966258.578929) vcan0 123#271C
(1763966258.590231) vcan0 240#0000
(1763966258.599730) vcan0 123#271C
(1763966258.620601) vcan0 123#271C
(1763966258.632566) vcan0 310#03000000
(1763966258.641920) vcan0 123#28FC
(1763966258.642828) vcan0 240#0000
(1763966258.662532) vcan0 123#28FC
(1763966258.683391) vcan0 123#28FC
(1763966258.693597) vcan0 240#0000
(1763966258.704250) vcan0 123#28FC
(1763966258.725345) vcan0 123#28FC
(1763966258.735356) vcan0 310#03000000
(1763966258.745422) vcan0 240#0000
(1763966258.745951) vcan0 123#2ADC
(1763966258.753599) vcan0 500#0D0E0F10
(1763966258.767400) vcan0 123#2ADC
(1763966258.788348) vcan0 123#2ADC
(1763966258.797220) vcan0 240#0000
(1763966258.808897) vcan0 123#2ADC
(1763966258.830028) vcan0 123#2ADC
(1763966258.837685) vcan0 310#03000000
(1763966258.849179) vcan0 240#0000
(1763966258.851315) vcan0 123#2CBC
(1763966258.871965) vcan0 123#2CBC
(1763966258.893139) vcan0 123#2CBC
(1763966258.900742) vcan0 240#0000
(1763966258.914176) vcan0 123#2CBC
(1763966258.935038) vcan0 123#2CBC
(1763966258.940420) vcan0 310#03000000
(1763966258.951980) vcan0 240#0000
(1763966258.955686) vcan0 123#2E9C
(1763966258.976353) vcan0 123#2E9C
(1763966258.997502) vcan0 123#2E9C
(1763966259.003717) vcan0 240#0000
(1763966259.018575) vcan0 123#2E9C
(1763966259.039652) vcan0 123#2E9C
(1763966259.043577) vcan0 310#03000000
(1763966259.055196) vcan0 240#0000
(1763966259.060665) vcan0 123#307C
(1763966259.081836) vcan0 123#307C
(1763966259.102927) vcan0 123#307C
(1763966259.107029) vcan0 240#0000
(1763966259.123997) vcan0 123#307C
(1763966259.144874) vcan0 123#307C
(1763966259.146449) vcan0 310#03000000
(1763966259.158429) vcan0 240#0000
(1763966259.166091) vcan0 123#325C
(1763966259.187402) vcan0 123#325C
(1763966259.208572) vcan0 123#325C
(1763966259.210059) vcan0 240#0000
(1763966259.229767) vcan0 123#325C
(1763966259.249468) vcan0 310#03000000
(1763966259.250352) vcan0 123#343C
(1763966259.261717) vcan0 240#0000
(1763966259.271704) vcan0 123#343C
(1763966259.292872) vcan0 123#343C
(1763966259.313568) vcan0 240#0000
(1763966259.313925) vcan0 123#343C
(1763966259.335220) vcan0 123#343C
(1763966259.352462) vcan0 310#03000000
(1763966259.356182) vcan0 123#361C
(1763966259.365110) vcan0 240#0000
(1763966259.376971) vcan0 123#361C
(1763966259.398151) vcan0 123#361C
(1763966259.416590) vcan0 240#0000
(1763966259.419344) vcan0 123#361C
(1763966259.440321) vcan0 123#361C
(1763966259.455436) vcan0 310#03000000
(1763966259.461231) vcan0 123#285C
(1763966259.468053) vcan0 240#0000
(1763966259.482310) vcan0 123#285C
(1763966259.503228) vcan0 123#285C
(1763966259.519510) vcan0 240#0000
(1763966259.524194) vcan0 123#285C
(1763966259.544971) vcan0 123#285C
(1763966259.558014) vcan0 310#04000000
(1763966259.566054) vcan0 123#2A3C
(1763966259.571186) vcan0 240#0000
(1763966259.586975) vcan0 123#2A3C
(1763966259.607764) vcan0 123#2A3C
(1763966259.622586) vcan0 240#0000
(1763966259.628623) vcan0 123#2A3C
(1763966259.649654) vcan0 123#2A3C
(1763966259.661162) vcan0 310#04000000
(1763966259.670740) vcan0 123#2C1C
(1763966259.673838) vcan0 240#0000
(1763966259.691933) vcan0 123#2C1C
(1763966259.713021) vcan0 123#2C1C
(1763966259.725526) vcan0 240#0000
(1763966259.734147) vcan0 123#2C1C
(1763966259.754918) vcan0 123#2C1C
(1763966259.756797) vcan0 500#0D0E0F10
(1763966259.763981) vcan0 310#04000000
(1763966259.775499) vcan0 123#2DFC
(1763966259.777086) vcan0 240#0000
(1763966259.796652) vcan0 123#2DFC
(1763966259.817728) vcan0 123#2DFC
(1763966259.828918) vcan0 240#0000
(1763966259.838778) vcan0 123#2DFC
(1763966259.859893) vcan0 123#2DFC
(1763966259.866964) vcan0 310#04000000
(1763966259.880777) vcan0 123#2FDC
(1763966259.881081) vcan0 240#0000
(1763966259.902020) vcan0 123#2FDC
(1763966259.922970) vcan0 123#2FDC
(1763966259.932913) vcan0 240#0000
(1763966259.944178) vcan0 123#2FDC
(1763966259.965202) vcan0 123#2FDC
(1763966259.969570) vcan0 310#04000000
(1763966259.984809) vcan0 240#0000
(1763966259.985695) vcan0 123#31BC
(1763966260.006940) vcan0 123#31BC
(1763966260.028043) vcan0 123#31BC
(1763966260.036410) vcan0 240#0000
(1763966260.048923) vcan0 123#31BC
(1763966260.069696) vcan0 123#31BC
(1763966260.072196) vcan0 310#04000000
(1763966260.086829) vcan0 240#0000
(1763966260.090391) vcan0 123#339C
(1763966260.111471) vcan0 123#339C
(1763966260.132396) vcan0 123#339C
(1763966260.138616) vcan0 240#0000
(1763966260.153383) vcan0 123#339C
(1763966260.174340) vcan0 123#339C
(1763966260.175329) vcan0 310#04000000
(1763966260.190398) vcan0 240#0000
(1763966260.195417) vcan0 123#357C
(1763966260.216328) vcan0 123#357C
(1763966260.237526) vcan0 123#357C
(1763966260.241877) vcan0 240#0000
(1763966260.258695) vcan0 123#357C
(1763966260.277592) vcan0 310#04000000
(1763966260.279726) vcan0 123#27BC
(1763966260.293655) vcan0 240#0000
(1763966260.300826) vcan0 123#27BC
(1763966260.321702) vcan0 123#27BC
(1763966260.342888) vcan0 123#27BC
(1763966260.345433) vcan0 240#0000
(1763966260.363413) vcan0 123#27BC
(1763966260.380182) vcan0 310#05000000
(1763966260.384159) vcan0 123#2794
(1763966260.396735) vcan0 240#0000
(1763966260.405050) vcan0 123#2794
(1763966260.426156) vcan0 123#2794
(1763966260.447311) vcan0 123#2794
(1763966260.447990) vcan0 240#0000
(1763966260.468289) vcan0 123#2794
(1763966260.483262) vcan0 310#05000000
(1763966260.489308) vcan0 123#276C
(1763966260.499947) vcan0 240#0000
(1763966260.510764) vcan0 123#276C
(1763966260.531897) vcan0 123#276C
(1763966260.551727) vcan0 240#0000
(1763966260.552511) vcan0 123#276C
(1763966260.573729) vcan0 123#276C
(1763966260.585597) vcan0 310#05000000
(1763966260.594703) vcan0 123#2744
(1763966260.603377) vcan0 240#0000
(1763966260.615322) vcan0 123#2744
(1763966260.636414) vcan0 123#2744
(1763966260.655292) vcan0 240#0000
(1763966260.657612) vcan0 123#2744
(1763966260.678333) vcan0 123#2744
(1763966260.688819) vcan0 310#05000000
(1763966260.699530) vcan0 123#271C
(1763966260.707342) vcan0 240#0000
(1763966260.720685) vcan0 123#271C
(1763966260.741459) vcan0 123#271C
(1763966260.758471) vcan0 240#0000
(1763966260.759344) vcan0 500#0D0E0F10
(1763966260.762734) vcan0 123#271C
(1763966260.783903) vcan0 123#271C
(1763966260.791411) vcan0 310#05000000
(1763966260.805088) vcan0 123#26F4
(1763966260.810212) vcan0 240#0000
(1763966260.826169) vcan0 123#26F4
(1763966260.847454) vcan0 123#26F4
(1763966260.862001) vcan0 240#0000
(1763966260.868624) vcan0 123#26F4
(1763966260.889873) vcan0 123#26F4
(1763966260.894381) vcan0 310#05000000
(1763966260.910968) vcan0 123#26CC
(1763966260.913788) vcan0 240#0000
(1763966260.932064) vcan0 123#26CC
(1763966260.953082) vcan0 123#26CC
(1763966260.965109) vcan0 240#0000
(1763966260.973876) vcan0 123#26CC
(1763966260.994960) vcan0 123#26CC
(1763966260.997456) vcan0 310#05000000
(1763966261.015963) vcan0 123#26A4
(1763966261.016372) vcan0 240#0000
(1763966261.036775) vcan0 123#26A4
(1763966261.057872) vcan0 123#26A4
(1763966261.068321) vcan0 240#0000
(1763966261.078987) vcan0 123#26A4
(1763966261.100149) vcan0 123#26A4
(1763966261.100478) vcan0 310#05000000
(1763966261.120686) vcan0 240#0000
(1763966261.121329) vcan0 123#267C
(1763966261.141686) vcan0 123#267C
(1763966261.162964) vcan0 123#267C
(1763966261.171969) vcan0 240#0000
(1763966261.183544) vcan0 123#267C
(1763966261.202812) vcan0 310#05000000
(1763966261.204183) vcan0 123#2654
(1763966261.223614) vcan0 240#0000
(1763966261.224866) vcan0 123#2654
(1763966261.246107) vcan0 123#2654
(1763966261.267394) vcan0 123#2654
(1763966261.275433) vcan0 240#0000
(1763966261.288281) vcan0 123#2654
(1763966261.305840) vcan0 310#05000000
(1763966261.309158) vcan0 123#262C
(1763966261.326898) vcan0 240#0000
(1763966261.330281) vcan0 123#262C
(1763966261.351112) vcan0 123#262C
(1763966261.372186) vcan0 123#262C
(1763966261.378419) vcan0 240#0000
(1763966261.393350) vcan0 123#262C
(1763966261.408794) vcan0 310#05000000
(1763966261.414425) vcan0 123#2604
(1763966261.429944) vcan0 240#0000
(1763966261.435376) vcan0 123#2604
(1763966261.456337) vcan0 123#2604
(1763966261.477419) vcan0 123#2604
(1763966261.481775) vcan0 240#0000
(1763966261.498223) vcan0 123#2604
(1763966261.511735) vcan0 310#05000000
(1763966261.519397) vcan0 123#25DC
(1763966261.533655) vcan0 240#0000
(1763966261.540474) vcan0 123#25DC
(1763966261.561213) vcan0 123#25DC
(1763966261.583578) vcan0 123#25DC
(1763966261.584974) vcan0 240#0000
(1763966261.604140) vcan0 123#25B4
(1763966261.614111) vcan0 310#05000000
(1763966261.624772) vcan0 123#25B4
(1763966261.635645) vcan0 240#0000
(1763966261.645283) vcan0 123#25B4
(1763966261.665964) vcan0 123#25B4
(1763966261.687339) vcan0 240#0000
(1763966261.687653) vcan0 123#25B4
(1763966261.708736) vcan0 123#258C
(1763966261.717043) vcan0 310#05000000
(1763966261.729417) vcan0 123#258C
(1763966261.738935) vcan0 240#0000
(1763966261.750556) vcan0 123#258C
(1763966261.761810) vcan0 500#0D0E0F10
(1763966261.771683) vcan0 123#258C
(1763966261.790578) vcan0 240#0000
(1763966261.792926) vcan0 123#258C
(1763966261.814021) vcan0 123#2564
(1763966261.819721) vcan0 310#05000000
(1763966261.835041) vcan0 123#2564
(1763966261.842507) vcan0 240#0000
(1763966261.855869) vcan0 123#2564
(1763966261.876739) vcan0 123#2564
(1763966261.894194) vcan0 240#0000
(1763966261.897790) vcan0 123#2564
(1763966261.919319) vcan0 123#253C
(1763966261.922125) vcan0 310#05000000
(1763966261.939957) vcan0 123#253C
(1763966261.945893) vcan0 240#0000
(1763966261.961010) vcan0 123#253C
(1763966261.982075) vcan0 123#253C
(1763966261.997571) vcan0 240#0000
(1763966262.003217) vcan0 123#253C
(1763966262.023875) vcan0 123#2514
(1763966262.024674) vcan0 310#05000000
(1763966262.045015) vcan0 123#2514
(1763966262.049248) vcan0 240#0000
(1763966262.066187) vcan0 123#2514
(1763966262.087452) vcan0 123#2514
(1763966262.101035) vcan0 240#0000
(1763966262.108389) vcan0 123#24EC
(1763966262.127446) vcan0 310#05000000
(1763966262.129422) vcan0 123#24EC
(1763966262.150564) vcan0 123#24EC
(1763966262.152786) vcan0 240#0000
(1763966262.171438) vcan0 123#24EC
(1763966262.192541) vcan0 123#24EC
(1763966262.203950) vcan0 240#0000
(1763966262.213505) vcan0 123#24C4
(1763966262.229852) vcan0 310#05000000
(1763966262.234524) vcan0 123#24C4
(1763966262.255627) vcan0 123#24C4
(1763966262.255927) vcan0 240#0000
(1763966262.276719) vcan0 123#24C4
(1763966262.297573) vcan0 123#24C4
(1763966262.307473) vcan0 240#0000
(1763966262.318225) vcan0 123#249C
(1763966262.330174) vcan0 310#05000000
(1763966262.338500) vcan0 123#249C
(1763966262.358815) vcan0 240#0000
(1763966262.359426) vcan0 123#249C
(1763966262.379890) vcan0 123#249C
(1763966262.400445) vcan0 123#249C
(1763966262.409964) vcan0 240#0000
(1763966262.421150) vcan0 123#2474
(1763966262.431494) vcan0 310#05000000
(1763966262.441507) vcan0 123#2474
(1763966262.461643) vcan0 240#0000
(1763966262.462660) vcan0 123#2474
(1763966262.484285) vcan0 123#2474
(1763966262.504662) vcan0 123#2474
(1763966262.512696) vcan0 240#0000
(1763966262.525051) vcan0 123#244C
(1763966262.533927) vcan0 310#05000000
(1763966262.545633) vcan0 123#244C
(1763966262.563017) vcan0 240#0000
(1763966262.566196) vcan0 123#244C
(1763966262.586884) vcan0 123#244C
(1763966262.607353) vcan0 123#244C
(1763966262.613226) vcan0 240#0000
(1763966262.628049) vcan0 123#2474
(1763966262.634905) vcan0 310#05000000
(1763966262.648783) vcan0 123#2474
(1763966262.663423) vcan0 240#0000
(1763966262.669432) vcan0 123#2474
(1763966262.689861) vcan0 123#2474
(1763966262.710706) vcan0 123#2474
(1763966262.713859) vcan0 240#0000
(1763966262.731227) vcan0 123#244C
(1763966262.735826) vcan0 310#05000000
(1763966262.751897) vcan0 123#244C
(1763966262.762534) vcan0 500#0D0E0F10
(1763966262.764721) vcan0 240#0000
(1763966262.772374) vcan0 123#244C
(1763966262.792954) vcan0 123#244C
(1763966262.813559) vcan0 123#2424
(1763966262.815965) vcan0 240#0000
(1763966262.834042) vcan0 123#2424
(1763966262.836089) vcan0 310#05000000
(1763966262.854300) vcan0 123#2424
(1763966262.866217) vcan0 240#0000
(1763966262.874786) vcan0 123#2424
(1763966262.894914) vcan0 123#2424
(1763966262.915250) vcan0 123#244C
(1763966262.917157) vcan0 240#0000
(1763966262.935807) vcan0 123#244C
(1763966262.938109) vcan0 310#05000000
(1763966262.956495) vcan0 123#244C
(1763966262.968462) vcan0 240#0000
(1763966262.977166) vcan0 123#244C
(1763966262.997816) vcan0 123#244C
(1763966263.018319) vcan0 123#2474
(1763966263.019716) vcan0 240#0000
(1763966263.038841) vcan0 123#2474
(1763966263.040340) vcan0 310#05000000
(1763966263.059913) vcan0 123#2474
(1763966263.070939) vcan0 240#0000
(1763966263.080609) vcan0 123#2474
(1763966263.101180) vcan0 123#2474
(1763966263.121767) vcan0 123#249C
(1763966263.122082) vcan0 240#0000
(1763966263.142293) vcan0 123#249C
(1763966263.142577) vcan0 310#05000000
(1763966263.162910) vcan0 123#249C
(1763966263.173272) vcan0 240#0000
(1763966263.183455) vcan0 123#249C
(1763966263.204054) vcan0 123#249C
(1763966263.224686) vcan0 240#0000
(1763966263.224970) vcan0 123#24C4
(1763966263.244956) vcan0 310#05000000
(1763966263.245292) vcan0 123#24C4
(1763966263.265923) vcan0 123#24C4
(1763966263.275732) vcan0 240#0000
(1763966263.286497) vcan0 123#24C4
(1763966263.306980) vcan0 123#24C4
(1763966263.326938) vcan0 240#0000
(1763966263.327583) vcan0 123#249C
(1763966263.347245) vcan0 310#05000000
(1763966263.348077) vcan0 123#249C
(1763966263.368688) vcan0 123#249C
(1763966263.378125) vcan0 240#0000
(1763966263.389289) vcan0 123#249C
(1763966263.409821) vcan0 123#249C
(1763966263.429427) vcan0 240#0000
(1763966263.430361) vcan0 123#2474
(1763966263.449647) vcan0 310#05000000
(1763966263.451174) vcan0 123#2474
(1763966263.471588) vcan0 123#2474
(1763966263.480604) vcan0 240#0000
(1763966263.492280) vcan0 123#2474
(1763966263.512824) vcan0 123#2474
(1763966263.532995) vcan0 240#0000
(1763966263.533314) vcan0 123#249C
(1763966263.552050) vcan0 310#05000000
(1763966263.554127) vcan0 123#249C
(1763966263.574844) vcan0 123#249C
(1763966263.584402) vcan0 240#0000
(1763966263.595314) vcan0 123#249C
(1763966263.616138) vcan0 123#249C
(1763966263.635801) vcan0 240#0000
(1763966263.636232) vcan0 123#24C4
(1763966263.652043) vcan0 310#05000000
(1763966263.656876) vcan0 123#24C4
(1763966263.677398) vcan0 123#24C4
(1763966263.686010) vcan0 240#0000
(1763966263.698507) vcan0 123#24C4
(1763966263.719650) vcan0 123#24C4
(1763966263.737474) vcan0 240#0000
(1763966263.740427) vcan0 123#24EC
(1763966263.753598) vcan0 310#05000000
(1763966263.761298) vcan0 123#24EC
(1763966263.764056) vcan0 500#0D0E0F10
(1763966263.782430) vcan0 123#24EC
(1763966263.788855) vcan0 240#0000
(1763966263.803548) vcan0 123#24EC
(1763966263.824679) vcan0 123#24EC
(1763966263.840393) vcan0 240#0000
(1763966263.846583) vcan0 123#24C4
(1763966263.856314) vcan0 310#05000000
(1763966263.867920) vcan0 123#24C4
(1763966263.888920) vcan0 123#24C4
(1763966263.892154) vcan0 240#0000
(1763966263.909975) vcan0 123#24C4
(1763966263.930744) vcan0 123#24C4
(1763966263.943542) vcan0 240#0000
(1763966263.951676) vcan0 123#24EC
(1763966263.958797) vcan0 310#05000000
(1763966263.972718) vcan0 123#24EC
(1763966263.993584) vcan0 123#24EC
(1763966263.995235) vcan0 240#0000
(1763966264.014647) vcan0 123#24EC
(1763966264.035411) vcan0 123#24EC
(1763966264.046764) vcan0 240#0000
(1763966264.056197) vcan0 123#2514
(1763966264.061560) vcan0 310#05000000
(1763966264.077248) vcan0 123#2514
(1763966264.097626) vcan0 240#0000
(1763966264.097935) vcan0 123#2514
(1763966264.118641) vcan0 123#2514
(1763966264.139743) vcan0 123#2514
(1763966264.149353) vcan0 240#0000
(1763966264.160772) vcan0 123#253C
(1763966264.163539) vcan0 310#05000000
(1763966264.182072) vcan0 123#253C
(1763966264.201094) vcan0 240#0000
(1763966264.202207) vcan0 123#253C
(1763966264.223489) vcan0 123#253C
(1763966264.244055) vcan0 123#2564
(1763966264.252459) vcan0 240#0000
(1763966264.264698) vcan0 123#2564
(1763966264.265756) vcan0 310#05000000
(1763966264.285803) vcan0 123#2564
(1763966264.303770) vcan0 240#0000
(1763966264.306844) vcan0 123#2564
(1763966264.327942) vcan0 123#2564
(1763966264.349010) vcan0 123#258C
(1763966264.355240) vcan0 240#0000
(1763966264.367016) vcan0 310#05000000
(1763966264.370046) vcan0 123#258C
(1763966264.390896) vcan0 123#258C
(1763966264.406535) vcan0 240#0000
(1763966264.412107) vcan0 123#258C
(1763966264.432878) vcan0 123#258C
(1763966264.453824) vcan0 123#25B4
(1763966264.457927) vcan0 240#0000
(1763966264.469602) vcan0 310#05000000
(1763966264.474525) vcan0 123#25B4
(1763966264.495253) vcan0 123#25B4
(1763966264.509307) vcan0 240#0000
(1763966264.516193) vcan0 123#25B4
(1763966264.537265) vcan0 123#25B4
(1763966264.558338) vcan0 123#258C
(1763966264.560773) vcan0 240#0000
(1763966264.572368) vcan0 310#05000000
(1763966264.579484) vcan0 123#258C
(1763966264.600405) vcan0 123#258C
(1763966264.611963) vcan0 240#0000
(1763966264.621276) vcan0 123#258C
(1763966264.641935) vcan0 123#258C
(1763966264.662271) vcan0 240#0000
(1763966264.662833) vcan0 123#25B4
(1763966264.673016) vcan0 310#05000000
(1763966264.683653) vcan0 123#25B4
(1763966264.704639) vcan0 123#25B4
(1763966264.713865) vcan0 240#0000
(1763966264.725193) vcan0 123#25B4
(1763966264.746077) vcan0 123#25B4
(1763966264.764867) vcan0 500#0D0E0F10
(1763966264.765200) vcan0 240#0000
(1763966264.767315) vcan0 123#258C
(1763966264.775998) vcan0 310#05000000
(1763966264.787768) vcan0 123#258C
(1763966264.808991) vcan0 123#258C
(1763966264.816818) vcan0 240#0000
(1763966264.830011) vcan0 123#258C
(1763966264.850761) vcan0 123#258C
(1763966264.868645) vcan0 240#0000
(1763966264.871795) vcan0 123#25B4
(1763966264.878890) vcan0 310#05000000
(1763966264.892660) vcan0 123#25B4
(1763966264.913334) vcan0 123#25B4
(1763966264.920268) vcan0 240#0000
(1763966264.934131) vcan0 123#25B4
(1763966264.956096) vcan0 123#25B4
(1763966264.971633) vcan0 240#0000
(1763966264.976999) vcan0 123#25DC
(1763966264.981660) vcan0 310#05000000
(1763966264.998039) vcan0 123#25DC
(1763966265.019366) vcan0 123#25DC
(1763966265.023278) vcan0 240#0000
(1763966265.040436) vcan0 123#25DC
(1763966265.061615) vcan0 123#25DC
(1763966265.074616) vcan0 240#0000
(1763966265.082319) vcan0 123#25B4
(1763966265.084094) vcan0 310#05000000
(1763966265.103254) vcan0 123#25B4
(1763966265.123941) vcan0 123#25B4
(1763966265.126315) vcan0 240#0000
(1763966265.145054) vcan0 123#25B4
(1763966265.166197) vcan0 123#258C
(1763966265.177816) vcan0 240#0000
(1763966265.186942) vcan0 310#05000000
(1763966265.187599) vcan0 123#258C
(1763966265.208247) vcan0 123#258C
(1763966265.229352) vcan0 240#0000
(1763966265.229662) vcan0 123#258C
(1763966265.250432) vcan0 123#258C
(1763966265.271464) vcan0 123#2564
(1763966265.281041) vcan0 240#0000
(1763966265.289641) vcan0 310#05000000
(1763966265.291979) vcan0 123#2564
(1763966265.313170) vcan0 123#2564
(1763966265.332458) vcan0 240#0000
(1763966265.334154) vcan0 123#2564
(1763966265.354928) vcan0 123#2564
(1763966265.375728) vcan0 123#258C
(1763966265.384159) vcan0 240#0000
(1763966265.392353) vcan0 310#05000000
(1763966265.396680) vcan0 123#258C
(1763966265.417713) vcan0 123#258C
(1763966265.435583) vcan0 240#0000
(1763966265.438763) vcan0 123#258C
(1763966265.459836) vcan0 123#258C
(1763966265.480906) vcan0 123#2564
(1763966265.487362) vcan0 240#0000
(1763966265.494769) vcan0 310#05000000
(1763966265.501978) vcan0 123#2564
(1763966265.523033) vcan0 123#2564
(1763966265.539044) vcan0 240#0000
(1763966265.544202) vcan0 123#2564
(1763966265.565257) vcan0 123#2564
(1763966265.586322) vcan0 123#253C
(1763966265.590387) vcan0 240#0000
(1763966265.597149) vcan0 310#05000000
(1763966265.607421) vcan0 123#253C
(1763966265.628393) vcan0 123#253C
(1763966265.642076) vcan0 240#0000
(1763966265.649151) vcan0 123#253C
(1763966265.670280) vcan0 123#253C
(1763966265.691631) vcan0 123#2564
(1763966265.693071) vcan0 240#0000
(1763966265.699582) vcan0 310#05000000
(1763966265.712402) vcan0 123#2564
(1763966265.733145) vcan0 123#2564
(1763966265.744766) vcan0 240#0000
(1763966265.754186) vcan0 123#2564
(1763966265.767664) vcan0 500#0D0E0F10
(1763966265.774914) vcan0 123#2564
(1763966265.796064) vcan0 123#253C
(1763966265.796604) vcan0 240#0000
(1763966265.802070) vcan0 310#05000000
(1763966265.817069) vcan0 123#253C
(1763966265.838117) vcan0 123#253C
(1763966265.848088) vcan0 240#0000
(1763966265.859105) vcan0 123#253C
(1763966265.879943) vcan0 123#253C
(1763966265.899770) vcan0 240#0000
(1763966265.900351) vcan0 123#2514
(1763966265.904382) vcan0 310#05000000
(1763966265.921324) vcan0 123#2514
(1763966265.942440) vcan0 123#2514
(1763966265.951437) vcan0 240#0000
(1763966265.963288) vcan0 123#2514
(1763966265.984419) vcan0 123#2514
(1763966266.003225) vcan0 240#0000
(1763966266.005057) vcan0 123#253C
(1763966266.006575) vcan0 310#05000000
(1763966266.026177) vcan0 123#253C
(1763966266.047420) vcan0 123#253C
(1763966266.054513) vcan0 240#0000
(1763966266.068458) vcan0 123#253C
(1763966266.089184) vcan0 123#2514
(1763966266.106218) vcan0 240#0000
(1763966266.109512) vcan0 310#05000000
(1763966266.109715) vcan0 123#2514
(1763966266.130877) vcan0 123#2514
(1763966266.152004) vcan0 123#2514
(1763966266.157654) vcan0 240#0000
(1763966266.173253) vcan0 123#2514
(1763966266.194117) vcan0 123#253C
(1763966266.209135) vcan0 240#0000
(1763966266.212195) vcan0 310#05000000
(1763966266.215351) vcan0 123#253C
(1763966266.236146) vcan0 123#253C
(1763966266.257225) vcan0 123#253C
(1763966266.260556) vcan0 240#0000
(1763966266.278073) vcan0 123#253C
(1763966266.299362) vcan0 123#2514
(1763966266.311731) vcan0 240#0000
(1763966266.314940) vcan0 310#05000000
(1763966266.320019) vcan0 123#2514
(1763966266.341126) vcan0 123#2514
(1763966266.362086) vcan0 123#2514
(1763966266.362809) vcan0 240#0000
(1763966266.383260) vcan0 123#2514
(1763966266.404294) vcan0 123#24EC
(1763966266.414392) vcan0 240#0000
(1763966266.417517) vcan0 310#05000000
(1763966266.425335) vcan0 123#24EC
(1763966266.446388) vcan0 123#24EC
(1763966266.465783) vcan0 240#0000
(1763966266.466850) vcan0 123#24EC
(1763966266.487851) vcan0 123#24EC
(1763966266.508567) vcan0 123#24C4
(1763966266.517226) vcan0 240#0000
(1763966266.520390) vcan0 310#05000000
(1763966266.529607) vcan0 123#24C4
(1763966266.550263) vcan0 123#24C4
(1763966266.568352) vcan0 240#0000
(1763966266.571425) vcan0 123#24C4
(1763966266.592455) vcan0 123#24C4
(1763966266.613739) vcan0 123#24EC
(1763966266.619720) vcan0 240#0000
(1763966266.623241) vcan0 310#05000000
(1763966266.634593) vcan0 123#24EC
(1763966266.655294) vcan0 123#24EC
(1763966266.670053) vcan0 240#0000
(1763966266.675981) vcan0 123#24EC
(1763966266.696736) vcan0 123#24EC
(1763966266.717783) vcan0 123#24C4
(1763966266.721315) vcan0 240#0000
(1763966266.725027) vcan0 310#05000000
(1763966266.738595) vcan0 123#24C4
(1763966266.759661) vcan0 123#24C4
(1763966266.770432) vcan0 500#0D0E0F10
(1763966266.772887) vcan0 240#0000
(1763966266.780454) vcan0 123#24C4
(1763966266.801479) vcan0 123#24C4
(1763966266.822316) vcan0 123#249C
(1763966266.824529) vcan0 240#0000
(1763966266.827950) vcan0 310#05000000
(1763966266.843426) vcan0 123#249C
(1763966266.864226) vcan0 123#249C
(1763966266.875903) vcan0 240#0000
(1763966266.885368) vcan0 123#249C
(1763966266.906599) vcan0 123#249C
(1763966266.927455) vcan0 123#2474
(1763966266.927878) vcan0 240#0000
(1763966266.930594) vcan0 310#05000000
(1763966266.948456) vcan0 123#2474
(1763966266.969511) vcan0 123#2474
(1763966266.979511) vcan0 240#0000
(1763966266.990711) vcan0 123#2474
(1763966267.011839) vcan0 123#244C
(1763966267.031305) vcan0 240#0000
(1763966267.032737) vcan0 123#244C
(1763966267.033082) vcan0 310#05000000
(1763966267.053720) vcan0 123#244C
(1763966267.074491) vcan0 123#244C
(1763966267.082876) vcan0 240#0000
(1763966267.095212) vcan0 123#244C
(1763966267.116204) vcan0 123#2424
(1763966267.134537) vcan0 240#0000
(1763966267.135142) vcan0 310#05000000
(1763966267.137241) vcan0 123#2424
(1763966267.158318) vcan0 123#2424
(1763966267.179271) vcan0 123#2424
(1763966267.186143) vcan0 240#0000
(1763966267.200203) vcan0 123#2424
(1763966267.221305) vcan0 123#23FC
(1763966267.237231) vcan0 240#0000
(1763966267.237589) vcan0 310#05000000
(1763966267.241776) vcan0 123#23FC
(1763966267.262418) vcan0 123#23FC
(1763966267.282991) vcan0 123#23FC
(1763966267.288401) vcan0 240#0000
(1763966267.303572) vcan0 123#23FC
(1763966267.324243) vcan0 123#23D4
(1763966267.339612) vcan0 310#05000000
(1763966267.339843) vcan0 240#0000
(1763966267.344807) vcan0 123#23D4
(1763966267.365409) vcan0 123#23D4
(1763966267.385987) vcan0 123#23D4
(1763966267.390978) vcan0 240#0000
(1763966267.406554) vcan0 123#23D4
(1763966267.427162) vcan0 123#23AC
(1763966267.441866) vcan0 310#05000000
(1763966267.442388) vcan0 240#0000
(1763966267.447638) vcan0 123#23AC
(1763966267.468299) vcan0 123#23AC
(1763966267.488983) vcan0 123#23AC
(1763966267.493532) vcan0 240#0000
(1763966267.509628) vcan0 123#23AC
(1763966267.530204) vcan0 123#2384
(1763966267.544201) vcan0 310#05000000
(1763966267.544802) vcan0 240#0000
(1763966267.550758) vcan0 123#2384
(1763966267.571334) vcan0 123#2384
(1763966267.591898) vcan0 123#2384
(1763966267.596291) vcan0 240#0000
(1763966267.612536) vcan0 123#2384
(1763966267.633192) vcan0 123#235C
(1763966267.646543) vcan0 310#05000000
(1763966267.647554) vcan0 240#0000
(1763966267.653758) vcan0 123#235C
(1763966267.674409) vcan0 123#235C
(1763966267.695148) vcan0 123#235C
(1763966267.698783) vcan0 240#0000
(1763966267.715632) vcan0 123#235C
(1763966267.736195) vcan0 123#2334
(1763966267.748809) vcan0 310#05000000
(1763966267.749967) vcan0 240#0000
(1763966267.756804) vcan0 123#2334
(1763966267.772159) vcan0 500#0D0E0F10
(1763966267.777369) vcan0 123#2334
(1763966267.798023) vcan0 123#2334
(1763966267.801170) vcan0 240#0000
(1763966267.818666) vcan0 123#2334
(1763966267.839249) vcan0 123#230C
(1763966267.851148) vcan0 310#05000000
(1763966267.852347) vcan0 240#0000
(1763966267.859902) vcan0 123#230C
(1763966267.880478) vcan0 123#230C
(1763966267.901179) vcan0 123#230C
(1763966267.903569) vcan0 240#0000
(1763966267.921830) vcan0 123#230C
(1763966267.942418) vcan0 123#22E4
(1763966267.953312) vcan0 310#05000000
(1763966267.954756) vcan0 240#0000
(1763966267.963479) vcan0 123#22E4
(1763966267.984047) vcan0 123#22E4
(1763966268.004643) vcan0 123#22E4
(1763966268.005944) vcan0 240#0000
(1763966268.025284) vcan0 123#22E4
(1763966268.046009) vcan0 123#22BC
(1763966268.055604) vcan0 310#05000000
(1763966268.057214) vcan0 240#0000
(1763966268.066656) vcan0 123#22BC
(1763966268.086913) vcan0 123#22BC
(1763966268.107466) vcan0 123#22BC
(1763966268.107809) vcan0 240#0000
(1763966268.128101) vcan0 123#22BC
(1763966268.149006) vcan0 123#22E4
(1763966268.156947) vcan0 310#05000000
(1763966268.159035) vcan0 240#0000
(1763966268.169459) vcan0 123#22E4
(1763966268.190658) vcan0 123#22E4
(1763966268.211263) vcan0 240#0000
(1763966268.211568) vcan0 123#22E4
(1763966268.232226) vcan0 123#22E4
(1763966268.252836) vcan0 123#22BC
(1763966268.259327) vcan0 310#05000000
(1763966268.262215) vcan0 240#0000
(1763966268.273336) vcan0 123#22BC
(1763966268.293966) vcan0 123#22BC
(1763966268.313451) vcan0 240#0000
(1763966268.314496) vcan0 123#22BC
(1763966268.336161) vcan0 123#22BC
(1763966268.356782) vcan0 123#2294
(1763966268.361546) vcan0 310#05000000
(1763966268.364636) vcan0 240#0000
(1763966268.377256) vcan0 123#2294
(1763966268.397867) vcan0 123#2294
(1763966268.415820) vcan0 240#0000
(1763966268.418419) vcan0 123#2294
(1763966268.439039) vcan0 123#2294
(1763966268.459659) vcan0 123#226C
(1763966268.463809) vcan0 310#05000000
(1763966268.466997) vcan0 240#0000
(1763966268.480199) vcan0 123#226C
(1763966268.500818) vcan0 123#226C
(1763966268.518330) vcan0 240#0000
(1763966268.521420) vcan0 123#226C
(1763966268.542031) vcan0 123#226C
(1763966268.562417) vcan0 123#2244
(1763966268.564262) vcan0 310#05000000
(1763966268.569577) vcan0 240#0000
(1763966268.582605) vcan0 123#2244
(1763966268.603229) vcan0 123#2244
(1763966268.620766) vcan0 240#0000
(1763966268.623786) vcan0 123#2244
(1763966268.644403) vcan0 123#221C
(1763966268.665026) vcan0 123#221C
(1763966268.666537) vcan0 310#05000000
(1763966268.671963) vcan0 240#0000
(1763966268.685658) vcan0 123#221C
(1763966268.706216) vcan0 123#221C
(1763966268.723214) vcan0 240#0000
(1763966268.726766) vcan0 123#221C
(1763966268.747339) vcan0 123#21F4
(1763966268.767934) vcan0 123#21F4
(1763966268.768789) vcan0 310#05000000
(1763966268.773669) vcan0 500#0D0E0F10
(1763966268.774393) vcan0 240#0000
(1763966268.788494) vcan0 123#21F4
(1763966268.809067) vcan0 123#21F4
(1763966268.825627) vcan0 240#0000
(1763966268.829672) vcan0 123#21F4
(1763966268.850311) vcan0 123#21CC
(1763966268.870953) vcan0 123#21CC
(1763966268.871301) vcan0 310#05000000
(1763966268.876826) vcan0 240#0000
(1763966268.891520) vcan0 123#21CC
(1763966268.912137) vcan0 123#21CC
(1763966268.928069) vcan0 240#0000
(1763966268.932712) vcan0 123#21CC
(1763966268.953308) vcan0 123#21A4
(1763966268.973473) vcan0 310#05000000
(1763966268.973819) vcan0 123#21A4
(1763966268.979308) vcan0 240#0000
(1763966268.994386) vcan0 123#21A4
(1763966269.014987) vcan0 123#21A4
(1763966269.030550) vcan0 240#0000
(1763966269.035529) vcan0 123#21A4
(1763966269.056112) vcan0 123#217C
(1763966269.075721) vcan0 310#05000000
(1763966269.076620) vcan0 123#217C
(1763966269.081740) vcan0 240#0000
(1763966269.097235) vcan0 123#217C
(1763966269.117899) vcan0 123#217C
(1763966269.133083) vcan0 240#0000
(1763966269.138390) vcan0 123#217C
(1763966269.158943) vcan0 123#2154
(1763966269.176887) vcan0 310#05000000
(1763966269.179530) vcan0 123#2154
(1763966269.184306) vcan0 240#0000
(1763966269.200118) vcan0 123#2154
(1763966269.220805) vcan0 123#2154
(1763966269.235604) vcan0 240#0000
(1763966269.241373) vcan0 123#2154
(1763966269.261945) vcan0 123#212C
(1763966269.279242) vcan0 310#05000000
(1763966269.282127) vcan0 123#212C
(1763966269.286877) vcan0 240#0000
(1763966269.302696) vcan0 123#212C
(1763966269.323300) vcan0 123#212C
(1763966269.338118) vcan0 240#0000
(1763966269.343849) vcan0 123#212C
(1763966269.364451) vcan0 123#2104
(1763966269.381433) vcan0 310#05000000
(1763966269.385005) vcan0 123#2104
(1763966269.389311) vcan0 240#0000
(1763966269.406342) vcan0 123#2104
(1763966269.427691) vcan0 123#2104
(1763966269.441323) vcan0 240#0000
(1763966269.448732) vcan0 123#2104
(1763966269.469855) vcan0 123#20DC
(1763966269.484307) vcan0 310#05000000
(1763966268.765646) vcan0 123#20DC
(1763966268.767945) vcan0 240#0000
(1763966268.786103) vcan0 123#20DC
(1763966268.807046) vcan0 123#20DC
(1763966268.819276) vcan0 240#0000
(1763966268.828073) vcan0 123#20DC
(1763966268.849113) vcan0 123#2104
(1763966268.861898) vcan0 310#05000000
(1763966268.869924) vcan0 123#2104
(1763966268.870772) vcan0 240#0000
(1763966268.890991) vcan0 123#2104
(1763966268.912047) vcan0 123#2104
(1763966268.922502) vcan0 240#0000
(1763966268.933123) vcan0 123#2104
(1763966268.954442) vcan0 123#20DC
(1763966268.964627) vcan0 310#05000000
(1763966268.973830) vcan0 240#0000
(1763966268.975177) vcan0 123#20DC
(1763966268.996230) vcan0 123#20DC
(1763966269.016980) vcan0 123#20DC
(1763966269.025519) vcan0 240#0000
(1763966269.037757) vcan0 123#20DC
(1763966269.050555) vcan0 500#0D0E0F10
(1763966269.058602) vcan0 123#20B4
(1763966269.067411) vcan0 310#05000000
(1763966269.077205) vcan0 240#0000
(1763966269.079663) vcan0 123#20B4
(1763966269.100718) vcan0 123#20B4
(1763966269.121760) vcan0 123#20B4
(1763966269.128871) vcan0 240#0000
(1763966269.142585) vcan0 123#20B4
(1763966269.163747) vcan0 123#20DC
(1763966269.170182) vcan0 310#05000000
(1763966269.180530) vcan0 240#0000
(1763966269.184883) vcan0 123#20DC
(1763966269.206027) vcan0 123#20DC
(1763966269.227128) vcan0 123#20DC
(1763966269.232247) vcan0 240#0000
(1763966269.247765) vcan0 123#20DC
(1763966269.268778) vcan0 123#20B4
(1763966269.273064) vcan0 310#05000000
(1763966269.284077) vcan0 240#0000
(1763966269.289817) vcan0 123#20B4
(1763966269.310925) vcan0 123#20B4
(1763966269.331593) vcan0 123#20B4
(1763966269.335476) vcan0 240#0000
(1763966269.352476) vcan0 123#208C
(1763966269.373514) vcan0 123#208C
(1763966269.375953) vcan0 310#05000000
(1763966269.387802) vcan0 240#0000
(1763966269.394440) vcan0 123#208C
(1763966269.415199) vcan0 123#208C
(1763966269.436352) vcan0 123#208C
(1763966269.439644) vcan0 240#0000
(1763966269.457374) vcan0 123#20B4
(1763966269.478609) vcan0 123#20B4
(1763966269.478918) vcan0 310#05000000
(1763966269.490794) vcan0 240#0000
(1763966269.498914) vcan0 123#20B4
(1763966269.519519) vcan0 123#20B4
(1763966269.540419) vcan0 123#20B4
(1763966269.541921) vcan0 240#0000
(1763966269.560975) vcan0 123#208C
(1763966269.581072) vcan0 310#05000000
(1763966269.581580) vcan0 123#208C
(1763966269.593180) vcan0 240#0000
(1763966269.602152) vcan0 123#208C
(1763966269.622863) vcan0 123#208C
(1763966269.644162) vcan0 123#208C
(1763966269.644752) vcan0 240#0000
(1763966269.665312) vcan0 123#20B4
(1763966269.684056) vcan0 310#05000000
(1763966269.686773) vcan0 123#20B4
(1763966269.696513) vcan0 240#0000
(1763966269.708018) vcan0 123#20B4
(1763966269.729221) vcan0 123#20B4
(1763966269.748137) vcan0 240#0000
(1763966269.750155) vcan0 123#20B4
(1763966269.770998) vcan0 123#208C
(1763966269.786372) vcan0 310#05000000
(1763966269.791865) vcan0 123#208C
(1763966269.799114) vcan0 240#0000
(1763966269.812690) vcan0 123#208C
(1763966269.833243) vcan0 123#208C
(1763966269.850005) vcan0 240#0000
(1763966269.854056) vcan0 123#208C
(1763966269.875022) vcan0 123#2064
(1763966269.887898) vcan0 310#05000000
(1763966269.895844) vcan0 123#2064
(1763966269.901175) vcan0 240#0000
(1763966269.916674) vcan0 123#2064
(1763966269.937092) vcan0 123#2064
(1763966269.951411) vcan0 240#0000
(1763966269.957608) vcan0 123#2064
(1763966269.978706) vcan0 123#203C
(1763966269.989108) vcan0 310#05000000
(1763966269.999401) vcan0 123#203C
(1763966270.002561) vcan0 240#0000
(1763966270.020324) vcan0 123#203C
(1763966270.040878) vcan0 123#203C
(1763966270.051968) vcan0 500#0D0E0F10
(1763966270.053024) vcan0 240#0000
(1763966270.061407) vcan0 123#203C
(1763966270.082364) vcan0 123#2014
(1763966270.090842) vcan0 310#05000000
(1763966270.102596) vcan0 123#2014
(1763966270.104253) vcan0 240#0000
(1763966270.123490) vcan0 123#2014
(1763966270.144141) vcan0 123#2014
(1763966270.155455) vcan0 240#0000
(1763966270.165000) vcan0 123#2014
(1763966270.185957) vcan0 123#1FEC
(1763966270.192418) vcan0 310#05000000
(1763966270.206652) vcan0 240#0000
(1763966270.207154) vcan0 123#1FEC
(1763966270.227470) vcan0 123#1FEC
(1763966270.248393) vcan0 123#1FEC
(1763966270.257780) vcan0 240#0000
(1763966270.269217) vcan0 123#1FEC
(1763966270.289813) vcan0 123#1FC4
(1763966270.293550) vcan0 310#05000000
(1763966270.308487) vcan0 240#0000
(1763966270.310492) vcan0 123#1FC4
(1763966270.330945) vcan0 123#1FC4
(1763966270.351776) vcan0 123#1FC4
(1763966270.359666) vcan0 240#0000
(1763966270.372527) vcan0 123#1F9C
(1763966270.393390) vcan0 123#1F9C
(1763966270.394941) vcan0 310#05000000
(1763966270.410819) vcan0 240#0000
(1763966270.414353) vcan0 123#1F9C
(1763966270.434777) vcan0 123#1F9C
(1763966270.455619) vcan0 123#1F9C
(1763966270.461754) vcan0 240#0000
(1763966270.476444) vcan0 123#1FC4
(1763966270.496459) vcan0 310#05000000
(1763966270.496860) vcan0 123#1FC4
(1763966270.512554) vcan0 240#0000
(1763966270.517607) vcan0 123#1FC4
(1763966270.538543) vcan0 123#1FC4
(1763966270.559364) vcan0 123#1FC4
(1763966270.563418) vcan0 240#0000
(1763966270.579965) vcan0 123#1F9C
(1763966270.597919) vcan0 310#05000000
(1763966270.600886) vcan0 123#1F9C
(1763966270.614119) vcan0 240#0000
(1763966270.621723) vcan0 123#1F9C
(1763966270.642557) vcan0 123#1F9C
(1763966270.663116) vcan0 123#1F9C
(1763966270.664814) vcan0 240#0000
(1763966270.683952) vcan0 123#1FC4
(1763966270.699409) vcan0 310#05000000
(1763966270.704660) vcan0 123#1FC4
(1763966270.715763) vcan0 240#0000
(1763966270.725482) vcan0 123#1FC4
(1763966270.746123) vcan0 123#1FC4
(1763966270.766764) vcan0 123#1FC4
(1763966270.767062) vcan0 240#0000
(1763966270.787262) vcan0 123#1F9C
(1763966270.799881) vcan0 310#05000000
(1763966270.807961) vcan0 123#1F9C
(1763966270.818208) vcan0 240#0000
(1763966270.828815) vcan0 123#1F9C
(1763966270.849326) vcan0 123#1F9C
(1763966270.869530) vcan0 240#0000
(1763966270.869854) vcan0 123#1F9C
(1763966270.890478) vcan0 123#1F74
(1763966270.901508) vcan0 310#05000000
(1763966270.910883) vcan0 123#1F74
(1763966270.920728) vcan0 240#0000
(1763966270.931860) vcan0 123#1F74
(1763966270.952420) vcan0 123#1F74
(1763966270.972163) vcan0 240#0000
(1763966270.972686) vcan0 123#1F74
(1763966270.993883) vcan0 123#1F4C
(1763966271.003126) vcan0 310#05000000
(1763966271.014714) vcan0 123#1F4C
(1763966271.023451) vcan0 240#0000
(1763966271.035193) vcan0 123#1F4C
(1763966271.052850) vcan0 500#0D0E0F10
(1763966271.056191) vcan0 123#1F4C
(1763966271.074643) vcan0 240#0000
(1763966271.077015) vcan0 123#1F4C
(1763966271.097852) vcan0 123#1F24
(1763966271.104849) vcan0 310#05000000
(1763966271.118514) vcan0 123#1F24
(1763966271.125870) vcan0 240#0000
(1763966271.139215) vcan0 123#1F24
(1763966271.160003) vcan0 123#1F24
(1763966271.176973) vcan0 240#0000
(1763966271.180842) vcan0 123#1F24
(1763966271.201694) vcan0 123#1F4C
(1763966271.206580) vcan0 310#05000000
(1763966271.222522) vcan0 123#1F4C
(1763966271.228124) vcan0 240#0000
(1763966271.243357) vcan0 123#1F4C
(1763966271.263886) vcan0 123#1F4C
(1763966271.279441) vcan0 240#0000
(1763966271.284555) vcan0 123#1F4C
(1763966271.305147) vcan0 123#1F74
(1763966271.308248) vcan0 310#05000000
(1763966271.326040) vcan0 123#1F74
(1763966271.330148) vcan0 240#0000
(1763966271.346698) vcan0 123#1F74
(1763966271.367398) vcan0 123#1F74
(1763966271.380970) vcan0 240#0000
(1763966271.388220) vcan0 123#1C54
(1763966271.409116) vcan0 310#05000000
(1763966271.409580) vcan0 123#1C54
(1763966271.430545) vcan0 123#1C54
(1763966271.431910) vcan0 240#0100
(1763966271.451363) vcan0 123#1C54
(1763966271.472192) vcan0 123#1C54
(1763966271.483185) vcan0 240#0100
(1763966271.492740) vcan0 123#1934
(1763966271.510974) vcan0 310#05000000
(1763966271.513573) vcan0 123#1934
(1763966271.534480) vcan0 123#1934
(1763966271.534787) vcan0 240#0100
(1763966271.555176) vcan0 123#1934
(1763966271.576024) vcan0 123#1934
(1763966271.585873) vcan0 240#0100
(1763966271.596908) vcan0 123#2294
(1763966271.612696) vcan0 310#04000000
(1763966271.617692) vcan0 123#2294
(1763966271.637151) vcan0 240#0100
(1763966271.637939) vcan0 123#2294
(1763966271.658722) vcan0 123#2294
(1763966271.679634) vcan0 123#2294
(1763966271.688355) vcan0 240#0100
(1763966271.699998) vcan0 123#1F74
(1763966271.714483) vcan0 310#04000000
(1763966271.721049) vcan0 123#1F74
(1763966271.739546) vcan0 240#0100
(1763966271.741861) vcan0 123#1F74
(1763966271.762579) vcan0 123#1F74
(1763966271.783467) vcan0 123#1F74
(1763966271.790715) vcan0 240#0100
(1763966271.804271) vcan0 123#1C54
(1763966271.815779) vcan0 310#04000000
(1763966271.825149) vcan0 123#1C54
(1763966271.841881) vcan0 240#0100
(1763966271.845977) vcan0 123#1C54
(1763966271.866843) vcan0 123#1C54
(1763966271.887264) vcan0 123#1C54
(1763966271.893056) vcan0 240#0100
(1763966271.908099) vcan0 123#1934
(1763966271.917463) vcan0 310#04000000
(1763966271.928622) vcan0 123#1934
(1763966271.944201) vcan0 240#0100
(1763966271.949527) vcan0 123#1934
(1763966271.970499) vcan0 123#1934
(1763966271.991299) vcan0 123#1934
(1763966271.995096) vcan0 240#0100
(1763966272.011960) vcan0 123#2294
(1763966272.019184) vcan0 310#03000000
(1763966272.032971) vcan0 123#2294
(1763966272.045999) vcan0 240#0100
(1763966272.053879) vcan0 500#0D0E0F10
(1763966272.054203) vcan0 123#2294
(1763966272.075079) vcan0 123#2294
(1763966272.095848) vcan0 123#2294
(1763966272.096685) vcan0 240#0100
(1763966272.116696) vcan0 123#1F74
(1763966272.120906) vcan0 310#03000000
(1763966272.137510) vcan0 123#1F74
(1763966272.147775) vcan0 240#0100
(1763966272.158413) vcan0 123#1F74
(1763966272.179272) vcan0 123#1F74
(1763966272.198667) vcan0 240#0100
(1763966272.199551) vcan0 123#1C54
(1763966272.220518) vcan0 123#1C54
(1763966272.222075) vcan0 310#03000000
(1763966272.241406) vcan0 123#1C54
(1763966272.249555) vcan0 240#0100
(1763966272.261992) vcan0 123#1C54
(1763966272.282593) vcan0 123#1C54
(1763966272.300419) vcan0 240#0100
(1763966272.303527) vcan0 123#1934
(1763966272.324059) vcan0 310#03000000
(1763966272.324363) vcan0 123#1934
(1763966272.344880) vcan0 123#1934
(1763966272.351476) vcan0 240#0100
(1763966272.365598) vcan0 123#1934
(1763966272.386633) vcan0 123#1934
(1763966272.402476) vcan0 240#0100
(1763966272.407464) vcan0 123#2294
(1763966272.425733) vcan0 310#02000000
(1763966272.428237) vcan0 123#2294
(1763966272.448811) vcan0 123#2294
(1763966272.453569) vcan0 240#0100
(1763966272.469948) vcan0 123#2294
(1763966272.490539) vcan0 123#2294
(1763966272.504546) vcan0 240#0100
(1763966272.511092) vcan0 123#1F74
(1763966272.527168) vcan0 310#02000000
(1763966272.531917) vcan0 123#1F74
(1763966272.552479) vcan0 123#1F74
(1763966272.555735) vcan0 240#0100
(1763966272.573316) vcan0 123#1F74
(1763966272.593926) vcan0 123#1F74
(1763966272.606649) vcan0 240#0100
(1763966272.614615) vcan0 123#1C54
(1763966272.628895) vcan0 310#02000000
(1763966272.635120) vcan0 123#1C54
(1763966272.656184) vcan0 123#1C54
(1763966272.657316) vcan0 240#0100
(1763966272.676920) vcan0 123#1C54
(1763966272.697786) vcan0 123#1C54
(1763966272.708852) vcan0 240#0100
(1763966272.718629) vcan0 123#1934
(1763966272.730200) vcan0 310#02000000
(1763966272.739234) vcan0 123#1934
(1763966272.759760) vcan0 240#0100
(1763966272.760054) vcan0 123#1934
(1763966272.780802) vcan0 123#1934
(1763966272.801636) vcan0 123#1934
(1763966272.810844) vcan0 240#0100
(1763966272.822020) vcan0 123#2294
(1763966272.832004) vcan0 310#01000000
(1763966272.843190) vcan0 123#2294
(1763966272.861975) vcan0 240#0100
(1763966272.864198) vcan0 123#2294
(1763966272.884752) vcan0 123#2294
(1763966272.905262) vcan0 123#2294
(1763966272.913131) vcan0 240#0100
(1763966272.926184) vcan0 123#1F74
(1763966272.933452) vcan0 310#01000000
(1763966272.947106) vcan0 123#1F74
(1763966272.964308) vcan0 240#0100
(1763966272.967958) vcan0 123#1F74
(1763966272.988700) vcan0 123#1F74
(1763966273.009542) vcan0 123#1F74
(1763966273.015141) vcan0 240#0100
(1763966273.030597) vcan0 123#1C54
(1763966273.035276) vcan0 310#01000000
(1763966273.051191) vcan0 123#1C54
(1763966273.054743) vcan0 500#0D0E0F10
(1763966273.066328) vcan0 240#0100
(1763966273.072029) vcan0 123#1C54
(1763966273.092871) vcan0 123#1C54
(1763966273.113489) vcan0 123#1C54
(1763966273.117532) vcan0 240#0100
(1763966273.134544) vcan0 123#1934
(1763966273.136984) vcan0 310#01000000
(1763966273.155253) vcan0 123#1934
(1763966273.168652) vcan0 240#0100
(1763966273.175810) vcan0 123#1934
(1763966273.196674) vcan0 123#1934
(1763966273.217586) vcan0 123#1934
(1763966273.219832) vcan0 240#0000
(1763966273.238588) vcan0 123#0C80
(1763966273.238886) vcan0 310#00000000
(1763966273.259145) vcan0 123#0C80
(1763966273.270800) vcan0 240#0000
(1763966273.280038) vcan0 123#0C80
(1763966273.300898) vcan0 123#0C80
(1763966273.321777) vcan0 240#0000
(1763966273.322229) vcan0 123#0C98
(1763966273.340314) vcan0 310#00000000
(1763966273.342316) vcan0 123#0C98
(1763966273.363335) vcan0 123#0C98
(1763966273.372583) vcan0 240#0000
(1763966273.384030) vcan0 123#0C98
(1763966273.404909) vcan0 123#0C98
(1763966273.423792) vcan0 240#0000
(1763966273.426064) vcan0 123#0C70
(1763966273.442138) vcan0 310#00000000
(1763966273.446897) vcan0 123#0C70
(1763966273.467731) vcan0 123#0C70
(1763966273.474954) vcan0 240#0000
(1763966273.488505) vcan0 123#0C70
(1763966273.509373) vcan0 123#0C70
(1763966273.526114) vcan0 240#0000
(1763966273.530334) vcan0 123#0D08
(1763966273.543865) vcan0 310#00000000
(1763966273.551111) vcan0 123#0D08
(1763966273.571979) vcan0 123#0D08
(1763966273.577258) vcan0 240#0000
(1763966273.592661) vcan0 123#0D08
(1763966273.613222) vcan0 123#0D08
(1763966273.628428) vcan0 240#0000
(1763966273.633853) vcan0 123#0C3C
(1763966273.645472) vcan0 310#00000000
(1763966273.654712) vcan0 123#0C3C
(1763966273.675628) vcan0 123#0C3C
(1763966273.679392) vcan0 240#0000
(1763966273.696229) vcan0 123#0C3C
(1763966273.716895) vcan0 123#0C3C
(1763966273.730420) vcan0 240#0000
(1763966273.737484) vcan0 123#0CB8
(1763966273.747008) vcan0 310#00000000
(1763966273.758516) vcan0 123#0CB8
(1763966273.779642) vcan0 123#0CB8
(1763966273.781323) vcan0 240#0000
(1763966273.800279) vcan0 123#0CB8
(1763966273.821105) vcan0 123#0CB8
(1763966273.832258) vcan0 240#0000
(1763966273.842197) vcan0 123#0BD0
(1763966273.848413) vcan0 310#00000000
(1763966273.863122) vcan0 123#0BD0
(1763966273.883365) vcan0 240#0000
(1763966273.883668) vcan0 123#0BD0
(1763966273.904252) vcan0 123#0BD0
(1763966273.924893) vcan0 123#0BD0
(1763966273.934220) vcan0 240#0000
(1763966273.945545) vcan0 123#0C6C
(1763966273.949811) vcan0 310#00000000
(1763966273.966071) vcan0 123#0C6C
(1763966273.985486) vcan0 240#0000
(1763966273.986423) vcan0 123#0C6C
(1763966274.007492) vcan0 123#0C6C
(1763966274.028456) vcan0 123#0C6C
(1763966274.036731) vcan0 240#0000
(1763966274.049258) vcan0 123#0C4C
(1763966274.051074) vcan0 310#00000000
(1763966274.055846) vcan0 500#0D0E0F10
(1763966274.069506) vcan0 123#0C4C
(1763966274.087336) vcan0 240#0000
(1763966274.089932) vcan0 123#0C4C
(1763966274.110358) vcan0 123#0C4C
(1763966274.131031) vcan0 123#0C4C
(1763966274.138116) vcan0 240#0000
(1763966274.151529) vcan0 123#0BF8
(1763966274.152312) vcan0 310#00000000
(1763966274.172021) vcan0 123#0BF8
(1763966274.188966) vcan0 240#0000
(1763966274.192373) vcan0 123#0BF8
(1763966274.212754) vcan0 123#0BF8
(1763966274.233132) vcan0 123#0BF8
(1763966274.239728) vcan0 240#0000
(1763966274.253576) vcan0 123#0C6C
(1763966274.253937) vcan0 310#00000000
(1763966274.273907) vcan0 123#0C6C
(1763966274.290446) vcan0 240#0000
(1763966274.294352) vcan0 123#0C6C
(1763966274.314743) vcan0 123#0C6C
(1763966274.335275) vcan0 123#0C6C
(1763966274.341225) vcan0 240#0000
(1763966274.354932) vcan0 310#00000000
(1763966274.355553) vcan0 123#0CBC
(1763966274.375965) vcan0 123#0CBC
(1763966274.391971) vcan0 240#0000
(1763966274.396423) vcan0 123#0CBC
(1763966274.416832) vcan0 123#0CBC
(1763966274.437227) vcan0 123#0C54
(1763966274.442692) vcan0 240#0000
(1763966274.456238) vcan0 310#00000000
(1763966274.457552) vcan0 123#0C54
(1763966274.477947) vcan0 123#0C54
(1763966274.493419) vcan0 240#0000
(1763966274.498299) vcan0 123#0C54
(1763966274.518823) vcan0 123#0C54
(1763966274.539312) vcan0 123#0C34
(1763966274.544261) vcan0 240#0000
(1763966274.557623) vcan0 310#00000000
(1763966274.559809) vcan0 123#0C34
(1763966274.580817) vcan0 123#0C34
(1763966274.595598) vcan0 240#0000
(1763966274.601459) vcan0 123#0C34
(1763966274.622528) vcan0 123#0C34
(1763966274.643245) vcan0 123#0C00
(1763966274.646764) vcan0 240#0000
(1763966274.659500) vcan0 310#00000000
(1763966274.664059) vcan0 123#0C00
(1763966274.684877) vcan0 123#0C00
(1763966274.697941) vcan0 240#0000
(1763966274.705736) vcan0 123#0C00
(1763966274.726565) vcan0 123#0C00
(1763966274.747155) vcan0 123#0CDC
(1763966274.748626) vcan0 240#0000
(1763966274.761210) vcan0 310#00000000
(1763966274.767722) vcan0 123#0CDC
(1763966274.788306) vcan0 123#0CDC
(1763966274.799462) vcan0 240#0000
(1763966274.808925) vcan0 123#0CDC
(1763966274.829629) vcan0 123#0CDC
(1763966274.850617) vcan0 240#0000
(1763966274.850913) vcan0 123#0D44
(1763966274.862507) vcan0 310#00000000
(1763966274.871815) vcan0 123#0D44
(1763966274.892474) vcan0 123#0D44
(1763966274.901791) vcan0 240#0000
(1763966274.913255) vcan0 123#0D44
(1763966274.934385) vcan0 123#0D44
(1763966274.952962) vcan0 240#0000
(1763966274.955104) vcan0 123#0CFC
(1763966274.964372) vcan0 310#00000000
(1763966274.975633) vcan0 123#0CFC
(1763966274.996493) vcan0 123#0CFC
(1763966275.004141) vcan0 240#0000
(1763966275.017260) vcan0 123#0CFC
(1763966275.037805) vcan0 123#0CFC
(1763966275.055396) vcan0 240#0000
(1763966275.055952) vcan0 500#0D0E0F10
(1763966275.058554) vcan0 123#0C7C
(1763966275.066102) vcan0 310#00000000
(1763966275.078800) vcan0 123#0C7C
(1763966275.099772) vcan0 123#0C7C
(1763966275.106663) vcan0 240#0000
(1763966275.120658) vcan0 123#0C7C
(1763966275.141500) vcan0 123#0C7C
(1763966275.157618) vcan0 240#0000
(1763966275.162165) vcan0 123#0BF0
(1763966275.167821) vcan0 310#00000000
(1763966275.183011) vcan0 123#0BF0
(1763966275.203527) vcan0 123#0BF0
(1763966275.208786) vcan0 240#0000
(1763966275.224484) vcan0 123#0BF0
(1763966275.245209) vcan0 123#0BF0
(1763966275.259964) vcan0 240#0000
(1763966275.266042) vcan0 123#0D3C
(1763966275.269549) vcan0 310#00000000
(1763966275.286941) vcan0 123#0D3C
(1763966275.307552) vcan0 123#0D3C
(1763966275.311131) vcan0 240#0000
(1763966275.328388) vcan0 123#0D3C
(1763966275.348959) vcan0 123#0D3C
(1763966275.361679) vcan0 240#0000
(1763966275.369781) vcan0 123#0BB8
(1763966275.370648) vcan0 310#00000000
(1763966275.390687) vcan0 123#0BB8
(1763966275.411519) vcan0 123#0BB8
(1763966275.412524) vcan0 240#0000
(1763966275.432048) vcan0 123#0BB8
(1763966275.452941) vcan0 123#0CEC
(1763966275.463879) vcan0 240#0000
(1763966275.472567) vcan0 310#00000000
(1763966275.473144) vcan0 123#0CEC
(1763966275.494215) vcan0 123#0CEC
(1763966275.515207) vcan0 240#0000
(1763966275.515503) vcan0 123#0CEC
(1763966275.536605) vcan0 123#0CEC
(1763966275.557108) vcan0 123#0CCC
(1763966275.566422) vcan0 240#0000
(1763966275.574328) vcan0 310#00000000
(1763966275.577748) vcan0 123#0CCC
(1763966275.598682) vcan0 123#0CCC
(1763966275.617211) vcan0 240#0000
(1763966275.619524) vcan0 123#0CCC
(1763966275.640369) vcan0 123#0CCC
(1763966275.660891) vcan0 123#0C54
(1763966275.667868) vcan0 240#0000
(1763966275.675797) vcan0 310#00000000
(1763966275.681886) vcan0 123#0C54
(1763966275.702448) vcan0 123#0C54
(1763966275.718958) vcan0 240#0000
(1763966275.723221) vcan0 123#0C54
(1763966275.744073) vcan0 123#0C54
(1763966275.764899) vcan0 123#0D40
(1763966275.769895) vcan0 240#0000
(1763966275.777529) vcan0 310#00000000
(1763966275.785483) vcan0 123#0D40
(1763966275.806054) vcan0 123#0D40
(1763966275.820984) vcan0 240#0000
(1763966275.826862) vcan0 123#0D40
(1763966275.847416) vcan0 123#0D40
(1763966275.868245) vcan0 123#0D18
(1763966275.871936) vcan0 240#0000
(1763966275.879065) vcan0 310#00000000
(1763966275.888810) vcan0 123#0D18
(1763966275.909495) vcan0 123#0D18
(1763966275.923104) vcan0 240#0000
(1763966275.930467) vcan0 123#0D18
(1763966275.951209) vcan0 123#0D18
(1763966275.971704) vcan0 123#0C68
(1763966275.974374) vcan0 240#0000
(1763966275.980974) vcan0 310#00000000
(1763966275.992415) vcan0 123#0C68
(1763966276.013593) vcan0 123#0C68
(1763966276.025067) vcan0 240#0000
(1763966276.034202) vcan0 123#0C68
(1763966276.054812) vcan0 123#0C68
(1763966276.059431) vcan0 500#0D0E0F10
(1763966276.075847) vcan0 123#0D44
(1763966276.076158) vcan0 240#0000
(1763966276.082563) vcan0 310#00000000
(1763966276.096443) vcan0 123#0D44
(1763966276.117280) vcan0 123#0D44
(1763966276.127432) vcan0 240#0000
(1763966276.138217) vcan0 123#0D44
(1763966276.159170) vcan0 123#0D44
(1763966276.178707) vcan0 240#0000
(1763966276.179434) vcan0 123#0CE0
(1763966276.184267) vcan0 310#00000000
(1763966276.200391) vcan0 123#0CE0
(1763966276.221349) vcan0 123#0CE0
(1763966276.229904) vcan0 240#0000
(1763966276.241622) vcan0 123#0CE0
(1763966276.262622) vcan0 123#0CE0
(1763966276.280794) vcan0 240#0000
(1763966276.282633) vcan0 123#0C84
(1763966276.285379) vcan0 310#00000000
(1763966276.303083) vcan0 123#0C84
(1763966276.323730) vcan0 123#0C84
(1763966276.331505) vcan0 240#0000
(1763966276.344129) vcan0 123#0C84
(1763966276.364945) vcan0 123#0C84
(1763966276.382352) vcan0 240#0000
(1763966276.386075) vcan0 123#0BD0
(1763966276.386639) vcan0 310#00000000
(1763966276.406692) vcan0 123#0BD0
(1763966276.427233) vcan0 123#0BD0
(1763966276.433012) vcan0 240#0000
(1763966276.447862) vcan0 123#0BD0
(1763966276.468462) vcan0 123#0CD0
(1763966276.483660) vcan0 240#0000
(1763966276.488696) vcan0 310#00000000
(1763966276.489007) vcan0 123#0CD0
(1763966276.509604) vcan0 123#0CD0
(1763966276.530558) vcan0 123#0CD0
(1763966276.534147) vcan0 240#0000
(1763966276.550810) vcan0 123#0CD0
(1763966276.571556) vcan0 123#0BFC
(1763966276.584786) vcan0 240#0000
(1763966276.590402) vcan0 310#00000000
(1763966276.592244) vcan0 123#0BFC
(1763966276.612781) vcan0 123#0BFC
(1763966276.633634) vcan0 123#0BFC
(1763966276.635546) vcan0 240#0000
(1763966276.654551) vcan0 123#0BFC
(1763966276.675247) vcan0 123#0C68
(1763966276.686020) vcan0 240#0000
(1763966276.692088) vcan0 310#00000000
(1763966276.695600) vcan0 123#0C68
(1763966276.716359) vcan0 123#0C68
(1763966276.736820) vcan0 240#0000
(1763966276.737126) vcan0 123#0C68
(1763966276.757900) vcan0 123#0C68
(1763966276.778718) vcan0 123#0CF4
(1763966276.788023) vcan0 240#0000
(1763966276.793715) vcan0 310#00000000
(1763966276.799759) vcan0 123#0CF4
(1763966276.820724) vcan0 123#0CF4
(1763966276.839692) vcan0 240#0000
(1763966276.842074) vcan0 123#0CF4
(1763966276.862918) vcan0 123#0CF4
(1763966276.883955) vcan0 123#0CA8
(1763966276.891498) vcan0 240#0000
(1763966276.896348) vcan0 310#00000000
(1763966276.904586) vcan0 123#0CA8
(1763966276.925454) vcan0 123#0CA8
(1763966276.943204) vcan0 240#0000
(1763966276.946596) vcan0 123#0CA8
(1763966276.967533) vcan0 123#0CA8
(1763966276.988526) vcan0 123#0C2C
(1763966276.994915) vcan0 240#0000
(1763966276.999076) vcan0 310#00000000
(1763966277.009580) vcan0 123#0C2C
(1763966277.030618) vcan0 123#0C2C
(1763966277.046580) vcan0 240#0000
(1763966277.051426) vcan0 123#0C2C
(1763966277.065034) vcan0 500#0D0E0F10
(1763966277.072179) vcan0 123#0C2C
(1763966277.093238) vcan0 123#0C60
(1763966277.098349) vcan0 240#0000
(1763966277.101790) vcan0 310#00000000
(1763966277.113803) vcan0 123#0C60
(1763966277.134874) vcan0 123#0C60
(1763966277.149902) vcan0 240#0000
(1763966277.155642) vcan0 123#0C60
(1763966277.176677) vcan0 123#0C60
(1763966277.197722) vcan0 123#0CA4
(1763966277.201571) vcan0 240#0000
(1763966277.204210) vcan0 310#00000000
(1763966277.218843) vcan0 123#0CA4
(1763966277.239592) vcan0 123#0CA4
(1763966277.252919) vcan0 240#0000
(1763966277.260707) vcan0 123#0CA4
(1763966277.281812) vcan0 123#0CA4
(1763966277.302603) vcan0 123#0BD0
(1763966277.304534) vcan0 240#0000
(1763966277.306692) vcan0 310#00000000
(1763966277.323549) vcan0 123#0BD0
(1763966277.344578) vcan0 123#0BD0
(1763966277.355960) vcan0 240#0000
(1763966277.365620) vcan0 123#0BD0
(1763966277.386767) vcan0 123#0BD0
(1763966277.407678) vcan0 240#0000
(1763966277.408528) vcan0 123#0BF0
(1763966277.408753) vcan0 310#00000000
(1763966277.429054) vcan0 123#0BF0
(1763966277.450404) vcan0 123#0BF0
(1763966277.459610) vcan0 240#0000
(1763966277.471596) vcan0 123#0BF0
(1763966277.492877) vcan0 123#0BF0
(1763966277.511042) vcan0 240#0000
(1763966277.511358) vcan0 310#00000000
(1763966277.513507) vcan0 123#0CD8
(1763966277.534597) vcan0 123#0CD8
(1763966277.555664) vcan0 123#0CD8
(1763966277.562452) vcan0 240#0000
(1763966277.576953) vcan0 123#0CD8
(1763966277.597554) vcan0 123#0BFC
(1763966277.613804) vcan0 240#0000
(1763966277.614309) vcan0 310#00000000
(1763966277.618695) vcan0 123#0BFC
(1763966277.639711) vcan0 123#0BFC
(1763966277.660743) vcan0 123#0BFC
(1763966277.665146) vcan0 240#0000
(1763966277.682028) vcan0 123#0BFC
(1763966277.703054) vcan0 123#0BC8
(1763966277.716418) vcan0 310#00000000
(1763966277.716703) vcan0 240#0000
(1763966277.724085) vcan0 123#0BC8
(1763966277.744824) vcan0 123#0BC8
(1763966277.765963) vcan0 123#0BC8
(1763966277.768358) vcan0 240#0000
(1763966277.787023) vcan0 123#0BC8
(1763966277.808056) vcan0 123#0BE4
(1763966277.819006) vcan0 240#0000
(1763966277.819749) vcan0 310#00000000
(1763966277.829117) vcan0 123#0BE4
(1763966277.850184) vcan0 123#0BE4
(1763966277.870520) vcan0 240#0000
(1763966277.870969) vcan0 123#0BE4
(1763966277.892248) vcan0 123#0BE4
(1763966277.913052) vcan0 123#0D14
(1763966277.922078) vcan0 240#0000
(1763966277.922444) vcan0 310#00000000
(1763966277.933731) vcan0 123#0D14
(1763966277.954542) vcan0 123#0D14
(1763966277.973756) vcan0 240#0000
(1763966277.975018) vcan0 123#0D14
(1763966277.995584) vcan0 123#0D14
(1763966278.016152) vcan0 123#0BE4
(1763966278.024902) vcan0 310#00000000
(1763966278.025334) vcan0 240#0000
(1763966278.036722) vcan0 123#0BE4
(1763966278.057658) vcan0 123#0BE4
(1763966278.066881) vcan0 500#0D0E0F10
(1763966278.076791) vcan0 240#0000
(1763966278.078607) vcan0 123#0BE4
(1763966278.099983) vcan0 123#0BE4
(1763966278.121208) vcan0 123#0C88
(1763966278.127495) vcan0 310#00000000
(1763966278.128020) vcan0 240#0000
(1763966278.141761) vcan0 123#0C88
(1763966278.162787) vcan0 123#0C88
(1763966278.179961) vcan0 240#0000
(1763966278.183807) vcan0 123#0C88
(1763966278.204525) vcan0 123#0C88
(1763966278.225294) vcan0 123#0C78
(1763966278.230296) vcan0 310#00000000
(1763966278.231056) vcan0 240#0000
(1763966278.246518) vcan0 123#0C78
(1763966278.267467) vcan0 123#0C78
(1763966278.282870) vcan0 240#0000
(1763966278.288258) vcan0 123#0C78
(1763966278.309585) vcan0 123#0C78
(1763966278.330220) vcan0 123#0D40
(1763966278.332389) vcan0 310#00000000
(1763966278.333839) vcan0 240#0000
(1763966278.351267) vcan0 123#0D40
(1763966278.372327) vcan0 123#0D40
(1763966278.385562) vcan0 240#0000
(1763966278.393452) vcan0 123#0D40
(1763966278.414306) vcan0 123#0D40
(1763966278.435243) vcan0 123#0BD0
(1763966278.435743) vcan0 310#00000000
(1763966278.436474) vcan0 240#0000
(1763966278.456248) vcan0 123#0BD0
(1763966278.477320) vcan0 123#0BD0
(1763966278.488356) vcan0 240#0000
(1763966278.498115) vcan0 123#0BD0
(1763966278.518802) vcan0 123#0C2C
(1763966278.538196) vcan0 310#00000000
(1763966278.539726) vcan0 240#0000
(1763966278.540029) vcan0 123#0C2C
(1763966278.561061) vcan0 123#0C2C
(1763966278.581838) vcan0 123#0C2C
(1763966278.591146) vcan0 240#0000
(1763966278.602395) vcan0 123#0C2C
(1763966278.623666) vcan0 123#0CB4
(1763966278.640900) vcan0 310#00000000
(1763966278.642849) vcan0 240#0000
(1763966278.644617) vcan0 123#0CB4
(1763966278.665423) vcan0 123#0CB4
(1763966278.686490) vcan0 123#0CB4
(1763966278.694630) vcan0 240#0000
(1763966278.707352) vcan0 123#0CB4
(1763966278.728649) vcan0 123#0BE8
(1763966278.743620) vcan0 310#00000000
(1763966278.745969) vcan0 240#0000
(1763966278.749697) vcan0 123#0BE8
(1763966278.770586) vcan0 123#0BE8
(1763966278.791743) vcan0 123#0BE8
(1763966278.797668) vcan0 240#0000
(1763966278.812483) vcan0 123#0BE8
(1763966278.833777) vcan0 123#0C10
(1763966278.845929) vcan0 310#00000000
(1763966278.849445) vcan0 240#0000
(1763966278.854594) vcan0 123#0C10
(1763966278.875641) vcan0 123#0C10
(1763966278.896710) vcan0 123#0C10
(1763966278.901188) vcan0 240#0000
(1763966278.917735) vcan0 123#0C10
(1763966278.938546) vcan0 123#0C90
(1763966278.948706) vcan0 310#00000000
(1763966278.952850) vcan0 240#0000
(1763966278.959622) vcan0 123#0C90
(1763966278.980699) vcan0 123#0C90
(1763966279.001738) vcan0 123#0C90
(1763966279.004524) vcan0 240#0000
(1763966279.022747) vcan0 123#0C90
(1763966279.043516) vcan0 123#0C60
(1763966279.051443) vcan0 310#00000000
(1763966279.056182) vcan0 240#0000
(1763966279.064552) vcan0 123#0C60
(1763966279.070795) vcan0 500#0D0E0F10
(1763966279.085520) vcan0 123#0C60
(1763966279.106702) vcan0 123#0C60
(1763966279.107344) vcan0 240#0000
(1763966279.127475) vcan0 123#0C60
(1763966279.148574) vcan0 123#0D00
(1763966279.154142) vcan0 310#00000000
(1763966279.159192) vcan0 240#0000
(1763966279.169620) vcan0 123#0D00
(1763966279.190500) vcan0 123#0D00
(1763966279.210976) vcan0 240#0000
(1763966279.211624) vcan0 123#0D00
(1763966279.232263) vcan0 123#0D00
(1763966279.253557) vcan0 123#0C28
(1763966279.256965) vcan0 310#00000000
(1763966279.262551) vcan0 240#0000
(1763966279.274150) vcan0 123#0C28
(1763966279.295386) vcan0 123#0C28
(1763966279.313952) vcan0 240#0000
(1763966279.316268) vcan0 123#0C28
(1763966279.337015) vcan0 123#0C28
(1763966279.358044) vcan0 123#0C5C
(1763966279.359475) vcan0 310#00000000
(1763966279.364427) vcan0 240#0000
(1763966279.379054) vcan0 123#0C5C
(1763966279.399686) vcan0 123#0C5C
(1763966279.415800) vcan0 240#0000
(1763966279.420378) vcan0 123#0C5C
(1763966279.441209) vcan0 123#0C7C
(1763966279.461843) vcan0 310#00000000
(1763966279.462289) vcan0 123#0C7C
(1763966279.467190) vcan0 240#0000
(1763966279.483161) vcan0 123#0C7C
(1763966279.503921) vcan0 123#0C7C
(1763966279.518603) vcan0 240#0000
(1763966279.524957) vcan0 123#0C7C
(1763966279.546001) vcan0 123#0C00
(1763966279.564490) vcan0 310#00000000
(1763966279.567340) vcan0 123#0C00
(1763966279.569771) vcan0 240#0000
(1763966279.588257) vcan0 123#0C00
(1763966279.609295) vcan0 123#0C00
(1763966279.621144) vcan0 240#0000
(1763966279.630441) vcan0 123#0C00
(1763966279.651114) vcan0 123#0BDC
(1763966279.666913) vcan0 310#00000000
(1763966279.671915) vcan0 123#0BDC
(1763966279.672589) vcan0 240#0000
(1763966279.693015) vcan0 123#0BDC
(1763966279.714045) vcan0 123#0BDC
(1763966279.724170) vcan0 240#0000
(1763966279.735161) vcan0 123#0BDC
(1763966279.755831) vcan0 123#0C8C
(1763966279.769702) vcan0 310#00000000
(1763966279.775777) vcan0 240#0000
(1763966279.776307) vcan0 123#0C8C
(1763966279.797537) vcan0 123#0C8C
(1763966279.818150) vcan0 123#0C8C
(1763966279.826944) vcan0 240#0000
(1763966279.838712) vcan0 123#0C8C
(1763966279.859292) vcan0 123#0E6C
(1763966279.871844) vcan0 310#01000000
(1763966279.878134) vcan0 240#0000
(1763966279.879893) vcan0 123#0E6C
(1763966279.900737) vcan0 123#0E6C
(1763966279.921382) vcan0 123#0E6C
(1763966279.929511) vcan0 240#0000
(1763966279.942702) vcan0 123#0E6C
(1763966279.963510) vcan0 123#104C
(1763966279.974694) vcan0 310#01000000
(1763966279.981038) vcan0 240#0000
(1763966279.984551) vcan0 123#104C
(1763966280.005584) vcan0 123#104C
(1763966280.026337) vcan0 123#104C
(1763966280.032274) vcan0 240#0000
(1763966280.047042) vcan0 123#104C
(1763966280.067826) vcan0 123#122C
(1763966280.073932) vcan0 500#0D0E0F10
(1763966280.077466) vcan0 310#01000000
(1763966280.083942) vcan0 240#0000
(1763966280.088661) vcan0 123#122C
(1763966280.109722) vcan0 123#122C
(1763966280.130507) vcan0 123#122C
(1763966280.135583) vcan0 240#0000
(1763966280.151396) vcan0 123#122C
(1763966280.172257) vcan0 123#140C
(1763966280.179918) vcan0 310#01000000
(1763966280.186978) vcan0 240#0000
(1763966280.193373) vcan0 123#140C
(1763966280.214632) vcan0 123#140C
(1763966280.235673) vcan0 123#140C
(1763966280.238677) vcan0 240#0000
(1763966280.256532) vcan0 123#140C
(1763966280.277429) vcan0 123#15EC
(1763966280.282585) vcan0 310#01000000
(1763966280.290174) vcan0 240#0000
(1763966280.298604) vcan0 123#15EC
(1763966280.319317) vcan0 123#15EC
(1763966280.340382) vcan0 123#15EC
(1763966280.341270) vcan0 240#0000
(1763966280.361515) vcan0 123#17CC
(1763966280.382655) vcan0 123#17CC
(1763966280.385176) vcan0 310#01000000
(1763966280.393073) vcan0 240#0000
(1763966280.403391) vcan0 123#17CC
(1763966280.424203) vcan0 123#17CC
(1763966280.444847) vcan0 240#0000
(1763966280.445145) vcan0 123#17CC
(1763966280.466117) vcan0 123#19AC
(1763966280.486903) vcan0 123#19AC
(1763966280.487559) vcan0 310#01000000
(1763966280.496158) vcan0 240#0000
(1763966280.507769) vcan0 123#19AC
(1763966280.529049) vcan0 123#19AC
(1763966280.547825) vcan0 240#0000
(1763966280.550109) vcan0 123#19AC
(1763966280.571174) vcan0 123#1B8C
(1763966280.590112) vcan0 310#01000000
(1763966280.592022) vcan0 123#1B8C
(1763966280.599466) vcan0 240#0000
(1763966280.613046) vcan0 123#1B8C
(1763966280.634004) vcan0 123#1B8C
(1763966280.650846) vcan0 240#0000
(1763966280.655076) vcan0 123#1B8C
(1763966280.675873) vcan0 123#1D6C
(1763966280.692625) vcan0 310#01000000
(1763966280.696989) vcan0 123#1D6C
(1763966280.702378) vcan0 240#0000
(1763966280.717729) vcan0 123#1D6C
(1763966280.738768) vcan0 123#1D6C
(1763966280.753943) vcan0 240#0000
(1763966280.759784) vcan0 123#1D6C
(1763966280.780823) vcan0 123#1F4C
(1763966280.795008) vcan0 310#01000000
(1763966280.804362) vcan0 123#1F4C
(1763966280.805031) vcan0 240#0000
(1763966280.825375) vcan0 123#1F4C
(1763966280.846117) vcan0 123#1F4C
(1763966280.857124) vcan0 240#0000
(1763966280.867016) vcan0 123#1F4C
(1763966280.887988) vcan0 123#212C
(1763966280.897398) vcan0 310#01000000
(1763966280.908820) vcan0 240#0000
(1763966280.909115) vcan0 123#212C
(1763966280.929948) vcan0 123#212C
(1763966280.950892) vcan0 123#212C
(1763966280.960638) vcan0 240#0000
