(1763994029.760550) vcan0 123#0C80
(1763994029.761121) vcan0 310#00000000
(1763994029.761593) vcan0 240#0000
(1763994029.762154) vcan0 500#0D0E0F10
(1763994029.780587) vcan0 123#0BD4
(1763994029.800951) vcan0 123#0BD4
(1763994029.812211) vcan0 240#0000
(1763994029.822034) vcan0 123#0BD4
(1763994029.843069) vcan0 123#0BD4
(1763994029.863138) vcan0 310#00000000
(1763994029.864238) vcan0 123#0BD4
(1763994029.864643) vcan0 240#0000
(1763994029.884983) vcan0 123#0BC8
(1763994029.905973) vcan0 123#0BC8
(1763994029.915796) vcan0 240#0000
(1763994029.926817) vcan0 123#0BC8
(1763994029.947526) vcan0 123#0BC8
(1763994029.965427) vcan0 310#00000000
(1763994029.967197) vcan0 240#0000
(1763994029.967877) vcan0 123#0C00
(1763994029.988867) vcan0 123#0C00
(1763994030.010091) vcan0 123#0C00
(1763994030.018704) vcan0 240#0000
(1763994030.030597) vcan0 123#0C00
(1763994030.051581) vcan0 123#0C00
(1763994030.067627) vcan0 310#00000000
(1763994030.069898) vcan0 240#0000
(1763994030.072280) vcan0 123#0C88
(1763994030.092932) vcan0 123#0C88
(1763994030.113775) vcan0 123#0C88
(1763994030.121125) vcan0 240#0000
(1763994030.134555) vcan0 123#0C88
(1763994030.155598) vcan0 123#0C88
(1763994030.170107) vcan0 310#00000000
(1763994030.172354) vcan0 240#0000
(1763994030.176355) vcan0 123#0C84
(1763994030.197357) vcan0 123#0C84
(1763994030.218381) vcan0 123#0C84
(1763994030.223864) vcan0 240#0000
(1763994030.239372) vcan0 123#0C84
(1763994030.260086) vcan0 123#0C84
(1763994030.272438) vcan0 310#00000000
(1763994030.275246) vcan0 240#0000
(1763994030.280743) vcan0 123#0CE0
(1763994030.301160) vcan0 123#0CE0
(1763994030.321758) vcan0 123#0CE0
(1763994030.326130) vcan0 240#0000
(1763994030.342119) vcan0 123#0CE0
(1763994030.362702) vcan0 123#0CE0
(1763994030.374123) vcan0 310#00000000
(1763994030.376344) vcan0 240#0000
(1763994030.383182) vcan0 123#0C5C
(1763994030.403671) vcan0 123#0C5C
(1763994030.424154) vcan0 123#0C5C
(1763994030.427352) vcan0 240#0000
(1763994030.444651) vcan0 123#0C5C
(1763994030.465150) vcan0 123#0C5C
(1763994030.476053) vcan0 310#00000000
(1763994030.478367) vcan0 240#0000
(1763994030.485717) vcan0 123#0C08
(1763994030.506178) vcan0 123#0C08
(1763994030.527318) vcan0 123#0C08
(1763994030.529934) vcan0 240#0000
(1763994030.547986) vcan0 123#0C08
(1763994030.568550) vcan0 123#0C08
(1763994030.577936) vcan0 310#00000000
(1763994030.580806) vcan0 240#0000
(1763994030.588901) vcan0 123#0D10
(1763994030.609393) vcan0 123#0D10
(1763994030.629912) vcan0 123#0D10
(1763994030.631870) vcan0 240#0000
(1763994030.650415) vcan0 123#0D10
(1763994030.670898) vcan0 123#0D10
(1763994030.679834) vcan0 310#00000000
(1763994030.682868) vcan0 240#0000
(1763994030.691394) vcan0 123#0C10
(1763994030.711861) vcan0 123#0C10
(1763994030.732339) vcan0 123#0C10
(1763994030.733780) vcan0 240#0000
(1763994030.752798) vcan0 123#0C10
(1763994030.762683) vcan0 500#0D0E0F10
(1763994030.773254) vcan0 123#0C10
(1763994030.781727) vcan0 310#00000000
(1763994030.784766) vcan0 240#0000
(1763994030.793707) vcan0 123#0C50
(1763994030.814174) vcan0 123#0C50
(1763994030.834666) vcan0 123#0C50
(1763994030.835771) vcan0 240#0000
(1763994030.855173) vcan0 123#0C50
(1763994030.875631) vcan0 123#0C50
(1763994030.883610) vcan0 310#00000000
(1763994030.886869) vcan0 240#0000
(1763994030.896111) vcan0 123#0C18
(1763994030.916589) vcan0 123#0C18
(1763994030.937059) vcan0 123#0C18
(1763994030.937879) vcan0 240#0000
(1763994030.957547) vcan0 123#0C18
(1763994030.978879) vcan0 123#0C18
(1763994030.986134) vcan0 310#00000000
(1763994030.989226) vcan0 240#0000
(1763994030.999232) vcan0 123#0D1C
(1763994031.020084) vcan0 123#0D1C
(1763994031.040378) vcan0 240#0000
(1763994031.041068) vcan0 123#0D1C
(1763994031.061616) vcan0 123#0D1C
(1763994031.082306) vcan0 123#0D1C
(1763994031.088473) vcan0 310#00000000
(1763994031.091510) vcan0 240#0000
(1763994031.103107) vcan0 123#0CD8
(1763994031.124206) vcan0 123#0CD8
(1763994031.142898) vcan0 240#0000
(1763994031.145105) vcan0 123#0CD8
(1763994031.165921) vcan0 123#0CD8
(1763994031.186774) vcan0 123#0CD8
(1763994031.190752) vcan0 310#00000000
(1763994031.194328) vcan0 240#0000
(1763994031.207669) vcan0 123#0D28
(1763994031.228241) vcan0 123#0D28
(1763994031.245224) vcan0 240#0000
(1763994031.248545) vcan0 123#0D28
(1763994031.269007) vcan0 123#0D28
(1763994031.289485) vcan0 123#0D28
(1763994031.292506) vcan0 310#00000000
(1763994031.296081) vcan0 240#0000
(1763994031.309967) vcan0 123#0C8C
(1763994031.330454) vcan0 123#0C8C
(1763994031.347814) vcan0 240#0000
(1763994031.351565) vcan0 123#0C8C
(1763994031.372420) vcan0 123#0C8C
(1763994031.393347) vcan0 123#0C8C
(1763994031.394736) vcan0 310#00000000
(1763994031.398242) vcan0 240#0000
(1763994031.413900) vcan0 123#0BC8
(1763994031.434350) vcan0 123#0BC8
(1763994031.449293) vcan0 240#0000
(1763994031.454827) vcan0 123#0BC8
(1763994031.475319) vcan0 123#0BC8
(1763994031.496344) vcan0 123#0BC8
(1763994031.497199) vcan0 310#00000000
(1763994031.500857) vcan0 240#0000
(1763994031.517197) vcan0 123#0C98
(1763994031.537933) vcan0 123#0C98
(1763994031.552005) vcan0 240#0000
(1763994031.558730) vcan0 123#0C98
(1763994031.579469) vcan0 123#0C98
(1763994031.599460) vcan0 310#00000000
(1763994031.600001) vcan0 123#0C8C
(1763994031.603515) vcan0 240#0000
(1763994031.620978) vcan0 123#0C8C
(1763994031.641993) vcan0 123#0C8C
(1763994031.654786) vcan0 240#0000
(1763994031.663009) vcan0 123#0C8C
(1763994031.683667) vcan0 123#0C8C
(1763994031.701533) vcan0 310#00000000
(1763994031.704550) vcan0 123#0C80
(1763994031.706096) vcan0 240#0000
(1763994031.725386) vcan0 123#0C80
(1763994031.746273) vcan0 123#0C80
(1763994031.757508) vcan0 240#0000
(1763994031.763503) vcan0 500#0D0E0F10
(1763994031.767207) vcan0 123#0C80
(1763994031.787769) vcan0 123#0C80
(1763994031.803528) vcan0 310#00000000
(1763994031.808136) vcan0 123#0C54
(1763994031.808309) vcan0 240#0000
(1763994031.828620) vcan0 123#0C54
(1763994031.849092) vcan0 123#0C54
(1763994031.859348) vcan0 240#0000
(1763994031.869565) vcan0 123#0C54
(1763994031.890083) vcan0 123#0C54
(1763994031.905278) vcan0 310#00000000
(1763994031.910374) vcan0 240#0000
(1763994031.910615) vcan0 123#0C34
(1763994031.931176) vcan0 123#0C34
(1763994031.951763) vcan0 123#0C34
(1763994031.961428) vcan0 240#0000
(1763994031.972184) vcan0 123#0C34
(1763994031.992683) vcan0 123#0C34
(1763994032.007244) vcan0 310#00000000
(1763994032.012498) vcan0 240#0000
(1763994032.013162) vcan0 123#0C90
(1763994032.033723) vcan0 123#0C90
(1763994032.053822) vcan0 123#0C90
(1763994032.062914) vcan0 240#0000
(1763994032.074312) vcan0 123#0C90
(1763994032.094763) vcan0 123#0C90
(1763994032.108481) vcan0 310#00000000
(1763994032.113921) vcan0 240#0000
(1763994032.115199) vcan0 123#0BE8
(1763994032.135693) vcan0 123#0BE8
(1763994032.156384) vcan0 123#0BE8
(1763994032.165091) vcan0 240#0000
(1763994032.176781) vcan0 123#0BE8
(1763994032.197333) vcan0 123#0BE8
(1763994032.210430) vcan0 310#00000000
(1763994032.216071) vcan0 240#0000
(1763994032.217711) vcan0 123#0BBC
(1763994032.238352) vcan0 123#0BBC
(1763994032.258953) vcan0 123#0BBC
(1763994032.267142) vcan0 240#0000
(1763994032.279466) vcan0 123#0BBC
(1763994032.299963) vcan0 123#0BBC
(1763994032.312307) vcan0 310#00000000
(1763994032.318093) vcan0 240#0000
(1763994032.320350) vcan0 123#0C2C
(1763994032.340891) vcan0 123#0C2C
(1763994032.361375) vcan0 123#0C2C
(1763994032.369180) vcan0 240#0000
(1763994032.381856) vcan0 123#0C2C
(1763994032.402406) vcan0 123#0C2C
(1763994032.414132) vcan0 310#00000000
(1763994032.419592) vcan0 240#0000
(1763994032.422784) vcan0 123#0C68
(1763994032.443291) vcan0 123#0C68
(1763994032.463760) vcan0 123#0C68
(1763994032.470670) vcan0 240#0000
(1763994032.484239) vcan0 123#0C68
(1763994032.504790) vcan0 123#0C68
(1763994032.516069) vcan0 310#00000000
(1763994032.521742) vcan0 240#0000
(1763994032.525225) vcan0 123#0C28
(1763994032.545753) vcan0 123#0C28
(1763994032.566245) vcan0 123#0C28
(1763994032.572686) vcan0 240#0000
(1763994032.586750) vcan0 123#0C28
(1763994032.607314) vcan0 123#0C28
(1763994032.618084) vcan0 310#00000000
(1763994032.623703) vcan0 240#0000
(1763994032.627891) vcan0 123#0CC4
(1763994032.648418) vcan0 123#0CC4
(1763994032.669033) vcan0 123#0CC4
(1763994032.674691) vcan0 240#0000
(1763994032.689542) vcan0 123#0CC4
(1763994032.710121) vcan0 123#0CC4
(1763994032.719991) vcan0 310#00000000
(1763994032.725698) vcan0 240#0000
(1763994032.730495) vcan0 123#0D40
(1763994032.751114) vcan0 123#0D40
(1763994032.771624) vcan0 123#0D40
(1763994032.772193) vcan0 500#0D0E0F10
(1763994032.776633) vcan0 240#0000
(1763994032.792092) vcan0 123#0D40
(1763994032.812689) vcan0 123#0D40
(1763994032.821940) vcan0 310#00000000
(1763994032.827667) vcan0 240#0000
(1763994032.833063) vcan0 123#0D14
(1763994032.853567) vcan0 123#0D14
(1763994032.874172) vcan0 123#0D14
(1763994032.878675) vcan0 240#0000
(1763994032.894576) vcan0 123#0D14
(1763994032.915054) vcan0 123#0D14
(1763994032.923818) vcan0 310#00000000
(1763994032.929692) vcan0 240#0000
(1763994032.935477) vcan0 123#0C44
(1763994032.956023) vcan0 123#0C44
(1763994032.976605) vcan0 123#0C44
(1763994032.980726) vcan0 240#0000
(1763994032.997069) vcan0 123#0C44
(1763994033.017504) vcan0 123#0C44
(1763994033.025739) vcan0 310#00000000
(1763994033.031706) vcan0 240#0000
(1763994033.037922) vcan0 123#0C88
(1763994033.058444) vcan0 123#0C88
(1763994033.078951) vcan0 123#0C88
(1763994033.082749) vcan0 240#0000
(1763994033.099430) vcan0 123#0C88
(1763994033.120067) vcan0 123#0C88
(1763994033.127647) vcan0 310#00000000
(1763994033.133771) vcan0 240#0000
(1763994033.140502) vcan0 123#0D38
(1763994033.161239) vcan0 123#0D38
(1763994033.181846) vcan0 123#0D38
(1763994033.184855) vcan0 240#0000
(1763994033.202321) vcan0 123#0D38
(1763994033.222866) vcan0 123#0D38
(1763994033.229537) vcan0 310#00000000
(1763994033.235999) vcan0 240#0000
(1763994033.243412) vcan0 123#0C0C
(1763994033.263960) vcan0 123#0C0C
(1763994033.284527) vcan0 123#0C0C
(1763994033.286852) vcan0 240#0000
(1763994033.305141) vcan0 123#0C0C
(1763994033.325934) vcan0 123#0C0C
(1763994033.331736) vcan0 310#00000000
(1763994033.338191) vcan0 240#0000
(1763994033.346664) vcan0 123#0C2C
(1763994033.367365) vcan0 123#0C2C
(1763994033.388104) vcan0 123#0C2C
(1763994033.389177) vcan0 240#0000
(1763994033.408561) vcan0 123#0C2C
(1763994033.429121) vcan0 123#0C2C
(1763994033.433499) vcan0 310#00000000
(1763994033.439796) vcan0 240#0000
(1763994033.449586) vcan0 123#0C88
(1763994033.470158) vcan0 123#0C88
(1763994033.490646) vcan0 123#0C88
(1763994033.491076) vcan0 240#0000
(1763994033.511150) vcan0 123#0C88
(1763994033.531680) vcan0 123#0C88
(1763994033.535404) vcan0 310#00000000
(1763994033.542189) vcan0 240#0000
(1763994033.552223) vcan0 123#0C8C
(1763994033.572721) vcan0 123#0C8C
(1763994033.593208) vcan0 123#0C8C
(1763994033.593577) vcan0 240#0000
(1763994033.613797) vcan0 123#0C8C
(1763994033.634403) vcan0 123#0C8C
(1763994033.637263) vcan0 310#00000000
(1763994033.643500) vcan0 240#0000
(1763994033.654871) vcan0 123#0C4C
(1763994033.675430) vcan0 123#0C4C
(1763994033.694496) vcan0 240#0000
(1763994033.695876) vcan0 123#0C4C
(1763994033.716392) vcan0 123#0C4C
(1763994033.737000) vcan0 123#0C4C
(1763994033.739098) vcan0 310#00000000
(1763994033.744665) vcan0 240#0000
(1763994033.757430) vcan0 123#0BF0
(1763994033.774134) vcan0 500#0D0E0F10
(1763994033.777859) vcan0 123#0BF0
(1763994033.795762) vcan0 240#0000
(1763994033.798299) vcan0 123#0BF0
(1763994033.818845) vcan0 123#0BF0
(1763994033.839337) vcan0 123#0BB8
(1763994033.841002) vcan0 310#00000000
(1763994033.845969) vcan0 240#0000
(1763994033.859772) vcan0 123#0BB8
(1763994033.880376) vcan0 123#0BB8
(1763994033.897085) vcan0 240#0000
(1763994033.900755) vcan0 123#0BB8
(1763994033.921488) vcan0 123#0BB8
(1763994033.941924) vcan0 123#0BF8
(1763994033.942858) vcan0 310#00000000
(1763994033.947387) vcan0 240#0000
(1763994033.962375) vcan0 123#0BF8
(1763994033.982840) vcan0 123#0BF8
(1763994033.998390) vcan0 240#0000
(1763994034.003300) vcan0 123#0BF8
(1763994034.023813) vcan0 123#0BF8
(1763994034.044276) vcan0 123#0CA0
(1763994034.044740) vcan0 310#00000000
(1763994034.048648) vcan0 240#0000
(1763994034.064853) vcan0 123#0CA0
(1763994034.085406) vcan0 123#0CA0
(1763994034.099656) vcan0 240#0000
(1763994034.105888) vcan0 123#0CA0
(1763994034.126374) vcan0 123#0CA0
(1763994034.146606) vcan0 310#00000000
(1763994034.147054) vcan0 123#0CE8
(1763994034.149993) vcan0 240#0000
(1763994034.167550) vcan0 123#0CE8
(1763994034.188140) vcan0 123#0CE8
(1763994034.201050) vcan0 240#0000
(1763994034.208631) vcan0 123#0CE8
(1763994034.229202) vcan0 123#0CE8
(1763994034.248520) vcan0 310#00000000
(1763994034.249596) vcan0 123#0CFC
(1763994034.251292) vcan0 240#0000
(1763994034.270073) vcan0 123#0CFC
(1763994034.290528) vcan0 123#0CFC
(1763994034.302308) vcan0 240#0000
(1763994034.311127) vcan0 123#0CFC
(1763994034.331678) vcan0 123#0CFC
(1763994034.350391) vcan0 310#00000000
(1763994034.352147) vcan0 123#0D14
(1763994034.352531) vcan0 240#0000
(1763994034.372642) vcan0 123#0D14
(1763994034.393247) vcan0 123#0D14
(1763994034.403550) vcan0 240#0000
(1763994034.413737) vcan0 123#0D14
(1763994034.434271) vcan0 123#0D14
(1763994034.452235) vcan0 310#00000000
(1763994034.453762) vcan0 240#0000
(1763994034.454718) vcan0 123#0C08
(1763994034.475230) vcan0 123#0C08
(1763994034.495706) vcan0 123#0C08
(1763994034.504814) vcan0 240#0000
(1763994034.516197) vcan0 123#0C08
(1763994034.537248) vcan0 123#0C08
(1763994034.554778) vcan0 310#00000000
(1763994034.555462) vcan0 240#0000
(1763994034.558060) vcan0 123#0C60
(1763994034.578721) vcan0 123#0C60
(1763994034.599562) vcan0 123#0C60
(1763994034.607074) vcan0 240#0000
(1763994034.620530) vcan0 123#0C60
(1763994034.641563) vcan0 123#0C60
(1763994034.656565) vcan0 310#00000000
(1763994034.657134) vcan0 240#0000
(1763994034.661866) vcan0 123#0C88
(1763994034.682391) vcan0 123#0C88
(1763994034.702847) vcan0 123#0C88
(1763994034.708142) vcan0 240#0000
(1763994034.723423) vcan0 123#0C88
(1763994034.743926) vcan0 123#0C88
(1763994034.758540) vcan0 310#00000000
(1763994034.759188) vcan0 240#0000
(1763994034.764408) vcan0 123#0C7C
(1763994034.782264) vcan0 500#0D0E0F10
(1763994034.784883) vcan0 123#0C7C
(1763994034.805709) vcan0 123#0C7C
(1763994034.810153) vcan0 240#0000
(1763994034.826090) vcan0 123#0C7C
(1763994034.846467) vcan0 123#0C7C
(1763994034.860489) vcan0 310#00000000
(1763994034.861167) vcan0 240#0000
(1763994034.866957) vcan0 123#0BD4
(1763994034.887459) vcan0 123#0BD4
(1763994034.907927) vcan0 123#0BD4
(1763994034.912189) vcan0 240#0000
(1763994034.928418) vcan0 123#0BD4
(1763994034.948891) vcan0 123#0BD4
(1763994034.962277) vcan0 310#00000000
(1763994034.963192) vcan0 240#0000
(1763994034.969379) vcan0 123#0C40
(1763994034.989889) vcan0 123#0C40
(1763994035.010446) vcan0 123#0C40
(1763994035.014219) vcan0 240#0000
(1763994035.031013) vcan0 123#0C40
(1763994035.051483) vcan0 123#0C40
(1763994035.064187) vcan0 310#00000000
(1763994035.065231) vcan0 240#0000
(1763994035.072036) vcan0 123#0D04
(1763994035.092525) vcan0 123#0D04
(1763994035.113098) vcan0 123#0D04
(1763994035.116362) vcan0 240#0000
(1763994035.133721) vcan0 123#0D04
(1763994035.154242) vcan0 123#0D04
(1763994035.166052) vcan0 310#00000000
(1763994035.167321) vcan0 240#0000
(1763994035.174784) vcan0 123#0C00
(1763994035.195283) vcan0 123#0C00
(1763994035.215754) vcan0 123#0C00
(1763994035.218337) vcan0 240#0000
(1763994035.236243) vcan0 123#0C00
(1763994035.256733) vcan0 123#0C00
(1763994035.267946) vcan0 310#00000000
(1763994035.269350) vcan0 240#0000
(1763994035.277220) vcan0 123#0BE8
(1763994035.297743) vcan0 123#0BE8
(1763994035.318768) vcan0 123#0BE8
(1763994035.320870) vcan0 240#0000
(1763994035.339514) vcan0 123#0BE8
(1763994035.360161) vcan0 123#0BCC
(1763994035.370033) vcan0 310#00000000
(1763994035.371602) vcan0 240#0000
(1763994035.380563) vcan0 123#0BCC
(1763994035.401056) vcan0 123#0BCC
(1763994035.421687) vcan0 123#0BCC
(1763994035.422594) vcan0 240#0000
(1763994035.442106) vcan0 123#0BCC
(1763994035.462683) vcan0 123#0C34
(1763994035.471743) vcan0 310#00000000
(1763994035.473597) vcan0 240#0000
(1763994035.483165) vcan0 123#0C34
(1763994035.503654) vcan0 123#0C34
(1763994035.524151) vcan0 123#0C34
(1763994035.524663) vcan0 240#0000
(1763994035.544630) vcan0 123#0C34
(1763994035.565114) vcan0 123#0C70
(1763994035.573609) vcan0 310#00000000
(1763994035.575672) vcan0 240#0000
(1763994035.585611) vcan0 123#0C70
(1763994035.606086) vcan0 123#0C70
(1763994035.626719) vcan0 123#0C70
(1763994035.626885) vcan0 240#0000
(1763994035.647140) vcan0 123#0C70
(1763994035.667595) vcan0 123#0D2C
(1763994035.675445) vcan0 310#00000000
(1763994035.677853) vcan0 240#0000
(1763994035.688068) vcan0 123#0D2C
(1763994035.708558) vcan0 123#0D2C
(1763994035.728900) vcan0 240#0000
(1763994035.729144) vcan0 123#0D2C
(1763994035.749694) vcan0 123#0D2C
(1763994035.770227) vcan0 123#0C18
(1763994035.777358) vcan0 310#00000000
(1763994035.779889) vcan0 240#0000
(1763994035.783609) vcan0 500#0D0E0F10
(1763994035.790790) vcan0 123#0C18
(1763994035.811284) vcan0 123#0C18
(1763994035.830878) vcan0 240#0000
(1763994035.831768) vcan0 123#0C18
(1763994035.852321) vcan0 123#0C18
(1763994035.872798) vcan0 123#0CD0
(1763994035.879204) vcan0 310#00000000
(1763994035.881890) vcan0 240#0000
(1763994035.893248) vcan0 123#0CD0
(1763994035.913786) vcan0 123#0CD0
(1763994035.932866) vcan0 240#0000
(1763994035.934332) vcan0 123#0CD0
(1763994035.954831) vcan0 123#0CD0
(1763994035.975306) vcan0 123#0BD4
(1763994035.981073) vcan0 310#00000000
(1763994035.983849) vcan0 240#0000
(1763994035.995865) vcan0 123#0BD4
(1763994036.016336) vcan0 123#0BD4
(1763994036.034885) vcan0 240#0000
(1763994036.036816) vcan0 123#0BD4
(1763994036.057053) vcan0 123#0BD4
(1763994036.077597) vcan0 123#0BCC
(1763994036.081839) vcan0 310#00000000
(1763994036.085784) vcan0 240#0000
(1763994036.098073) vcan0 123#0BCC
(1763994036.118540) vcan0 123#0BCC
(1763994036.136780) vcan0 240#0000
(1763994036.139088) vcan0 123#0BCC
(1763994036.159553) vcan0 123#0BCC
(1763994036.180043) vcan0 123#0D40
(1763994036.183694) vcan0 310#00000000
(1763994036.187776) vcan0 240#0000
(1763994036.200492) vcan0 123#0D40
(1763994036.221141) vcan0 123#0D40
(1763994036.238800) vcan0 240#0000
(1763994036.241608) vcan0 123#0D40
(1763994036.262247) vcan0 123#0D40
(1763994036.282806) vcan0 123#0C9C
(1763994036.285547) vcan0 310#00000000
(1763994036.289802) vcan0 240#0000
(1763994036.303296) vcan0 123#0C9C
(1763994036.323783) vcan0 123#0C9C
(1763994036.340994) vcan0 240#0000
(1763994036.344298) vcan0 123#0C9C
(1763994036.364804) vcan0 123#0C9C
(1763994036.385289) vcan0 123#0CDC
(1763994036.387585) vcan0 310#00000000
(1763994036.392134) vcan0 240#0000
(1763994036.405771) vcan0 123#0CDC
(1763994036.426270) vcan0 123#0CDC
(1763994036.443211) vcan0 240#0000
(1763994036.446725) vcan0 123#0CDC
(1763994036.467213) vcan0 123#0CDC
(1763994036.487786) vcan0 123#0CD8
(1763994036.489714) vcan0 310#00000000
(1763994036.494260) vcan0 240#0000
(1763994036.508279) vcan0 123#0CD8
(1763994036.528778) vcan0 123#0CD8
(1763994036.545456) vcan0 240#0000
(1763994036.549270) vcan0 123#0CD8
(1763994036.569792) vcan0 123#0CD8
(1763994036.590333) vcan0 123#0CEC
(1763994036.591720) vcan0 310#00000000
(1763994036.596521) vcan0 240#0000
(1763994036.610834) vcan0 123#0CEC
(1763994036.631340) vcan0 123#0CEC
(1763994036.647614) vcan0 240#0000
(1763994036.651849) vcan0 123#0CEC
(1763994036.672364) vcan0 123#0CEC
(1763994036.692873) vcan0 123#0C74
(1763994036.693752) vcan0 310#00000000
(1763994036.698680) vcan0 240#0000
(1763994036.713385) vcan0 123#0C74
(1763994036.733893) vcan0 123#0C74
(1763994036.749754) vcan0 240#0000
(1763994036.754508) vcan0 123#0C74
(1763994036.775024) vcan0 123#0C74
(1763994036.791801) vcan0 500#0D0E0F10
(1763994036.795551) vcan0 123#0C70
(1763994036.795867) vcan0 310#00000000
(1763994036.800836) vcan0 240#0000
(1763994036.816064) vcan0 123#0C70
(1763994036.836547) vcan0 123#0C70
(1763994036.851920) vcan0 240#0000
(1763994036.857053) vcan0 123#0C70
(1763994036.877555) vcan0 123#0C70
(1763994036.897914) vcan0 310#00000000
(1763994036.898162) vcan0 123#0BE8
(1763994036.903004) vcan0 240#0000
(1763994036.918620) vcan0 123#0BE8
(1763994036.939205) vcan0 123#0BE8
(1763994036.954139) vcan0 240#0000
(1763994036.959692) vcan0 123#0BE8
(1763994036.980282) vcan0 123#0BE8
(1763994036.999918) vcan0 310#00000000
(1763994037.000882) vcan0 123#0C0C
(1763994037.005223) vcan0 240#0000
(1763994037.021505) vcan0 123#0C0C
(1763994037.042021) vcan0 123#0C0C
(1763994037.056287) vcan0 240#0000
(1763994037.062593) vcan0 123#0C0C
(1763994037.083117) vcan0 123#0C0C
(1763994037.101944) vcan0 310#00000000
(1763994037.103616) vcan0 123#0D1C
(1763994037.107435) vcan0 240#0000
(1763994037.124124) vcan0 123#0D1C
(1763994037.144642) vcan0 123#0D1C
(1763994037.158511) vcan0 240#0000
(1763994037.165161) vcan0 123#0D1C
(1763994037.185836) vcan0 123#0D1C
(1763994037.203984) vcan0 310#00000000
(1763994037.206301) vcan0 123#0D0C
(1763994037.209728) vcan0 240#0000
(1763994037.226809) vcan0 123#0D0C
(1763994037.247352) vcan0 123#0D0C
(1763994037.261049) vcan0 240#0000
(1763994037.268450) vcan0 123#0D0C
(1763994037.289518) vcan0 123#0D0C
(1763994037.306526) vcan0 310#00000000
(1763994037.310112) vcan0 123#0BD4
(1763994037.312728) vcan0 240#0000
(1763994037.331076) vcan0 123#0BD4
(1763994037.351965) vcan0 123#0BD4
(1763994037.364229) vcan0 240#0000
(1763994037.372924) vcan0 123#0BD4
(1763994037.393821) vcan0 123#0BD4
(1763994037.408750) vcan0 310#00000000
(1763994037.414787) vcan0 123#0CFC
(1763994037.415200) vcan0 240#0000
(1763994037.435970) vcan0 123#0CFC
(1763994037.456459) vcan0 123#0CFC
(1763994037.466292) vcan0 240#0000
(1763994037.476878) vcan0 123#0CFC
(1763994037.497392) vcan0 123#0CFC
(1763994037.510608) vcan0 310#00000000
(1763994037.517334) vcan0 240#0000
(1763994037.517853) vcan0 123#0BE0
(1763994037.538390) vcan0 123#0BE0
(1763994037.558911) vcan0 123#0BE0
(1763994037.568423) vcan0 240#0000
(1763994037.579466) vcan0 123#0BE0
(1763994037.599987) vcan0 123#0BE0
(1763994037.612647) vcan0 310#00000000
(1763994037.619519) vcan0 240#0000
(1763994037.620458) vcan0 123#0C00
(1763994037.641218) vcan0 123#0C00
(1763994037.661789) vcan0 123#0C00
(1763994037.670630) vcan0 240#0000
(1763994037.682182) vcan0 123#0C00
(1763994037.702738) vcan0 123#0C00
(1763994037.714682) vcan0 310#00000000
(1763994037.721749) vcan0 240#0000
(1763994037.723213) vcan0 123#0C20
(1763994037.743743) vcan0 123#0C20
(1763994037.764237) vcan0 123#0C20
(1763994037.772873) vcan0 240#0000
(1763994037.784742) vcan0 123#0C20
(1763994037.792628) vcan0 500#0D0E0F10
(1763994037.805237) vcan0 123#0BD8
(1763994037.816703) vcan0 310#00000000
(1763994037.823958) vcan0 240#0000
(1763994037.825741) vcan0 123#0BD8
(1763994037.846269) vcan0 123#0BD8
(1763994037.866915) vcan0 123#0BD8
(1763994037.875004) vcan0 240#0000
(1763994037.887335) vcan0 123#0BD8
(1763994037.907825) vcan0 123#0BF8
(1763994037.918691) vcan0 310#00000000
(1763994037.926198) vcan0 240#0000
(1763994037.928387) vcan0 123#0BF8
(1763994037.948898) vcan0 123#0BF8
(1763994037.969429) vcan0 123#0BF8
(1763994037.977306) vcan0 240#0000
(1763994037.989932) vcan0 123#0BF8
(1763994038.010448) vcan0 123#0BE4
(1763994038.020725) vcan0 310#00000000
(1763994038.028396) vcan0 240#0000
(1763994038.030963) vcan0 123#0BE4
(1763994038.051529) vcan0 123#0BE4
(1763994038.072015) vcan0 123#0BE4
(1763994038.079515) vcan0 240#0000
(1763994038.092513) vcan0 123#0BE4
(1763994038.113044) vcan0 123#0BF4
(1763994038.122770) vcan0 310#00000000
(1763994038.130617) vcan0 240#0000
(1763994038.133539) vcan0 123#0BF4
(1763994038.154299) vcan0 123#0BF4
(1763994038.174883) vcan0 123#0BF4
(1763994038.181765) vcan0 240#0000
(1763994038.195467) vcan0 123#0BF4
(1763994038.215995) vcan0 123#0D3C
(1763994038.224903) vcan0 310#00000000
(1763994038.232850) vcan0 240#0000
(1763994038.236451) vcan0 123#0D3C
(1763994038.256993) vcan0 123#0D3C
(1763994038.277557) vcan0 123#0D3C
(1763994038.283961) vcan0 240#0000
(1763994038.298042) vcan0 123#0D3C
(1763994038.318585) vcan0 123#0D1C
(1763994038.327004) vcan0 310#00000000
(1763994038.335085) vcan0 240#0000
(1763994038.339042) vcan0 123#0D1C
(1763994038.359544) vcan0 123#0D1C
(1763994038.380114) vcan0 123#0D1C
(1763994038.386147) vcan0 240#0000
(1763994038.400597) vcan0 123#0D1C
(1763994038.421120) vcan0 123#0C5C
(1763994038.428999) vcan0 310#00000000
(1763994038.437219) vcan0 240#0000
(1763994038.441577) vcan0 123#0C5C
(1763994038.462180) vcan0 123#0C5C
(1763994038.482643) vcan0 123#0C5C
(1763994038.488342) vcan0 240#0000
(1763994038.503134) vcan0 123#0C5C
(1763994038.523664) vcan0 123#0CF0
(1763994038.531017) vcan0 310#00000000
(1763994038.539482) vcan0 240#0000
(1763994038.544117) vcan0 123#0CF0
(1763994038.564653) vcan0 123#0CF0
(1763994038.585218) vcan0 123#0CF0
(1763994038.590551) vcan0 240#0000
(1763994038.605801) vcan0 123#0CF0
(1763994038.626307) vcan0 123#0D20
(1763994038.633055) vcan0 310#00000000
(1763994038.641698) vcan0 240#0000
(1763994038.646785) vcan0 123#0D20
(1763994038.667291) vcan0 123#0D20
(1763994038.687824) vcan0 123#0D20
(1763994038.692704) vcan0 240#0000
(1763994038.708338) vcan0 123#0D20
(1763994038.728815) vcan0 123#0C70
(1763994038.735075) vcan0 310#00000000
(1763994038.743794) vcan0 240#0000
(1763994038.749298) vcan0 123#0C70
(1763994038.769830) vcan0 123#0C70
(1763994038.790323) vcan0 123#0C70
(1763994038.794870) vcan0 240#0000
(1763994038.799977) vcan0 500#0D0E0F10
(1763994038.810760) vcan0 123#0C70
(1763994038.831284) vcan0 123#0C38
(1763994038.837085) vcan0 310#00000000
(1763994038.845947) vcan0 240#0000
(1763994038.851759) vcan0 123#0C38
(1763994038.872258) vcan0 123#0C38
(1763994038.892780) vcan0 123#0C38
(1763994038.896979) vcan0 240#0000
(1763994038.913353) vcan0 123#0C38
(1763994038.933836) vcan0 123#0C20
(1763994038.939117) vcan0 310#00000000
(1763994038.948060) vcan0 240#0000
(1763994038.954321) vcan0 123#0C20
(1763994038.974952) vcan0 123#0C20
(1763994038.995475) vcan0 123#0C20
(1763994038.999114) vcan0 240#0000
(1763994039.015930) vcan0 123#0C20
(1763994039.036447) vcan0 123#0BBC
(1763994039.041142) vcan0 310#00000000
(1763994039.050213) vcan0 240#0000
(1763994039.056926) vcan0 123#0BBC
(1763994039.077471) vcan0 123#0BBC
(1763994039.098043) vcan0 123#0BBC
(1763994039.101294) vcan0 240#0000
(1763994039.118544) vcan0 123#0BBC
(1763994039.139043) vcan0 123#0BC0
(1763994039.143150) vcan0 310#00000000
(1763994039.152345) vcan0 240#0000
(1763994039.159522) vcan0 123#0BC0
(1763994039.180059) vcan0 123#0BC0
(1763994039.200576) vcan0 123#0BC0
(1763994039.203444) vcan0 240#0000
(1763994039.221087) vcan0 123#0BC0
(1763994039.241720) vcan0 123#0C10
(1763994039.245181) vcan0 310#00000000
(1763994039.254555) vcan0 240#0000
(1763994039.262096) vcan0 123#0C10
(1763994039.282655) vcan0 123#0C10
(1763994039.303263) vcan0 123#0C10
(1763994039.305765) vcan0 240#0000
(1763994039.323838) vcan0 123#0C10
(1763994039.344315) vcan0 123#0BCC
(1763994039.347206) vcan0 310#00000000
(1763994039.356780) vcan0 240#0000
(1763994039.365172) vcan0 123#0BCC
(1763994039.385587) vcan0 123#0BCC
(1763994039.406060) vcan0 123#0BCC
(1763994039.406855) vcan0 240#0000
(1763994039.426553) vcan0 123#0BCC
(1763994039.447064) vcan0 123#0C54
(1763994039.449206) vcan0 310#00000000
(1763994039.457185) vcan0 240#0000
(1763994039.467353) vcan0 123#0C54
(1763994039.487953) vcan0 123#0C54
(1763994039.507736) vcan0 240#0000
(1763994039.507962) vcan0 123#0C54
(1763994039.528538) vcan0 123#0C54
(1763994039.549013) vcan0 123#0BFC
(1763994039.551224) vcan0 310#00000000
(1763994039.558005) vcan0 240#0000
(1763994039.569338) vcan0 123#0BFC
(1763994039.589946) vcan0 123#0BFC
(1763994039.608480) vcan0 240#0000
(1763994039.610077) vcan0 123#0BFC
(1763994039.630601) vcan0 123#0BFC
(1763994039.651101) vcan0 123#0C78
(1763994039.653247) vcan0 310#00000000
(1763994039.658717) vcan0 240#0000
(1763994039.671386) vcan0 123#0C78
(1763994039.691936) vcan0 123#0C78
(1763994039.709202) vcan0 240#0000
(1763994039.712028) vcan0 123#0C78
(1763994039.732545) vcan0 123#0C78
(1763994039.753031) vcan0 123#0C44
(1763994039.755279) vcan0 310#00000000
(1763994039.759405) vcan0 240#0000
(1763994039.773351) vcan0 123#0C44
(1763994039.793870) vcan0 123#0C44
(1763994039.800247) vcan0 500#0D0E0F10
(1763994039.809818) vcan0 240#0000
(1763994039.813996) vcan0 123#0C44
(1763994039.835129) vcan0 123#0C44
(1763994039.855729) vcan0 123#0CA0
(1763994039.857891) vcan0 310#00000000
(1763994039.860574) vcan0 240#0000
(1763994039.876691) vcan0 123#0CA0
(1763994039.897754) vcan0 123#0CA0
(1763994039.911391) vcan0 240#0000
(1763994039.918335) vcan0 123#0CA0
(1763994039.938755) vcan0 123#0CA0
(1763994039.959311) vcan0 123#0D48
(1763994039.959780) vcan0 310#00000000
(1763994039.961423) vcan0 240#0000
(1763994039.979779) vcan0 123#0D48
(1763994040.000386) vcan0 123#0D48
(1763994040.011748) vcan0 240#0000
(1763994040.020639) vcan0 123#0D48
(1763994040.041192) vcan0 123#0D48
(1763994040.060211) vcan0 310#00000000
(1763994040.061712) vcan0 123#0CB4
(1763994040.061999) vcan0 240#0000
(1763994040.082144) vcan0 123#0CB4
(1763994040.102630) vcan0 123#0CB4
(1763994040.113258) vcan0 240#0000
(1763994040.123158) vcan0 123#0CB4
(1763994040.143660) vcan0 123#0CB4
(1763994040.162301) vcan0 310#00000000
(1763994040.164141) vcan0 123#0BC0
(1763994040.164441) vcan0 240#0000
(1763994040.184751) vcan0 123#0BC0
(1763994040.205263) vcan0 123#0BC0
(1763994040.215540) vcan0 240#0000
(1763994040.225814) vcan0 123#0BC0
(1763994040.246423) vcan0 123#0BC0
(1763994040.264375) vcan0 310#00000000
(1763994040.266597) vcan0 240#0000
(1763994040.266864) vcan0 123#0C94
(1763994040.287416) vcan0 123#0C94
(1763994040.307913) vcan0 123#0C94
(1763994040.317750) vcan0 240#0000
(1763994040.328458) vcan0 123#0C94
(1763994040.348981) vcan0 123#0C94
(1763994040.366422) vcan0 310#00000000
(1763994040.368840) vcan0 240#0000
(1763994040.369434) vcan0 123#0C38
(1763994040.390163) vcan0 123#0C38
(1763994040.410632) vcan0 123#0C38
(1763994040.419959) vcan0 240#0000
(1763994040.431096) vcan0 123#0C38
(1763994040.451587) vcan0 123#0C38
(1763994040.468437) vcan0 310#00000000
(1763994040.471016) vcan0 240#0000
(1763994040.472043) vcan0 123#0CF0
(1763994040.492648) vcan0 123#0CF0
(1763994040.513254) vcan0 123#0CF0
(1763994040.522081) vcan0 240#0000
(1763994040.533762) vcan0 123#0CF0
(1763994040.554548) vcan0 123#0CF0
(1763994040.571017) vcan0 310#00000000
(1763994040.573499) vcan0 240#0000
(1763994040.575253) vcan0 123#0C84
(1763994040.596182) vcan0 123#0C84
(1763994040.617124) vcan0 123#0C84
(1763994040.624845) vcan0 240#0000
(1763994040.638028) vcan0 123#0C84
(1763994040.659066) vcan0 123#0C84
(1763994040.673498) vcan0 310#00000000
(1763994040.676143) vcan0 240#0000
(1763994040.680020) vcan0 123#0C7C
(1763994040.700418) vcan0 123#0C7C
(1763994040.720911) vcan0 123#0C7C
(1763994040.727211) vcan0 240#0000
(1763994040.741372) vcan0 123#0C7C
(1763994040.761928) vcan0 123#0BBC
(1763994040.775413) vcan0 310#00000000
(1763994040.778301) vcan0 240#0000
(1763994040.782370) vcan0 123#0BBC
(1763994040.802930) vcan0 123#0BBC
(1763994040.806875) vcan0 500#0D0E0F10
(1763994040.823420) vcan0 123#0BBC
(1763994040.829397) vcan0 240#0000
(1763994040.843880) vcan0 123#0BBC
(1763994040.864401) vcan0 123#0C1C
(1763994040.877439) vcan0 310#00000000
(1763994040.880446) vcan0 240#0000
(1763994040.884838) vcan0 123#0C1C
(1763994040.905429) vcan0 123#0C1C
(1763994040.925887) vcan0 123#0C1C
(1763994040.931551) vcan0 240#0000
(1763994040.946370) vcan0 123#0C1C
(1763994040.966878) vcan0 123#0C74
(1763994040.979436) vcan0 310#00000000
(1763994040.982668) vcan0 240#0000
(1763994040.987350) vcan0 123#0C74
(1763994041.007844) vcan0 123#0C74
(1763994041.028349) vcan0 123#0C74
(1763994041.033763) vcan0 240#0000
(1763994041.048795) vcan0 123#0C74
(1763994041.069304) vcan0 123#0BDC
(1763994041.081461) vcan0 310#00000000
(1763994041.084961) vcan0 240#0000
(1763994041.089781) vcan0 123#0BDC
(1763994041.110275) vcan0 123#0BDC
(1763994041.130888) vcan0 123#0BDC
(1763994041.136042) vcan0 240#0000
(1763994041.151404) vcan0 123#0BDC
(1763994041.171953) vcan0 123#0D38
(1763994041.183483) vcan0 310#00000000
(1763994041.187202) vcan0 240#0000
(1763994041.192459) vcan0 123#0D38
(1763994041.213442) vcan0 123#0D38
(1763994041.234425) vcan0 123#0D38
(1763994041.238556) vcan0 240#0000
(1763994041.255233) vcan0 123#0D38
(1763994041.275952) vcan0 123#0CEC
(1763994041.285737) vcan0 310#00000000
(1763994041.289542) vcan0 240#0000
(1763994041.296344) vcan0 123#0CEC
(1763994041.316894) vcan0 123#0CEC
(1763994041.337334) vcan0 123#0CEC
(1763994041.340620) vcan0 240#0000
(1763994041.358737) vcan0 123#0CEC
(1763994041.379726) vcan0 123#0C7C
(1763994041.388318) vcan0 310#00000000
(1763994041.391956) vcan0 240#0000
(1763994041.400626) vcan0 123#0C7C
(1763994041.421593) vcan0 123#0C7C
(1763994041.442460) vcan0 123#0C7C
(1763994041.442994) vcan0 240#0000
(1763994041.463305) vcan0 123#0C7C
(1763994041.483757) vcan0 123#0BE8
(1763994041.490172) vcan0 310#00000000
(1763994041.494071) vcan0 240#0000
(1763994041.504194) vcan0 123#0BE8
(1763994041.524715) vcan0 123#0BE8
(1763994041.545225) vcan0 240#0000
(1763994041.545479) vcan0 123#0BE8
(1763994041.565832) vcan0 123#0BE8
(1763994041.586339) vcan0 123#0C38
(1763994041.592153) vcan0 310#00000000
(1763994041.596171) vcan0 240#0000
(1763994041.606821) vcan0 123#0C38
(1763994041.627348) vcan0 123#0C38
(1763994041.647304) vcan0 240#0000
(1763994041.647779) vcan0 123#0C38
(1763994041.668318) vcan0 123#0C38
(1763994041.688823) vcan0 123#0C40
(1763994041.694184) vcan0 310#00000000
(1763994041.698369) vcan0 240#0000
(1763994041.709282) vcan0 123#0C40
(1763994041.729893) vcan0 123#0C40
(1763994041.749513) vcan0 240#0000
(1763994041.750283) vcan0 123#0C40
(1763994041.770838) vcan0 123#0C40
(1763994041.791310) vcan0 123#0C5C
(1763994041.796235) vcan0 310#00000000
(1763994041.800561) vcan0 240#0000
(1763994041.811779) vcan0 123#0C5C
(1763994041.813171) vcan0 500#0D0E0F10
(1763994041.832391) vcan0 123#0C5C
(1763994041.851758) vcan0 240#0000
(1763994041.852902) vcan0 123#0C5C
(1763994041.873421) vcan0 123#0C5C
(1763994041.893907) vcan0 123#0D1C
(1763994041.898249) vcan0 310#00000000
(1763994041.902839) vcan0 240#0000
(1763994041.914375) vcan0 123#0D1C
(1763994041.934920) vcan0 123#0D1C
(1763994041.953982) vcan0 240#0000
(1763994041.955390) vcan0 123#0D1C
(1763994041.975957) vcan0 123#0D1C
(1763994041.996467) vcan0 123#0C34
(1763994042.000283) vcan0 310#00000000
(1763994042.005026) vcan0 240#0000
(1763994042.016893) vcan0 123#0C34
(1763994042.037402) vcan0 123#0C34
(1763994042.056197) vcan0 240#0000
(1763994042.057866) vcan0 123#0C34
(1763994042.078427) vcan0 123#0C34
(1763994042.098935) vcan0 123#0BDC
(1763994042.102365) vcan0 310#00000000
(1763994042.107245) vcan0 240#0000
(1763994042.119473) vcan0 123#0BDC
(1763994042.139979) vcan0 123#0BDC
(1763994042.158342) vcan0 240#0000
(1763994042.160455) vcan0 123#0BDC
(1763994042.181029) vcan0 123#0BDC
(1763994042.201498) vcan0 123#0D04
(1763994042.204390) vcan0 310#00000000
(1763994042.209413) vcan0 240#0000
(1763994042.221993) vcan0 123#0D04
(1763994042.242480) vcan0 123#0D04
(1763994042.260612) vcan0 240#0000
(1763994042.262983) vcan0 123#0D04
(1763994042.283492) vcan0 123#0D04
(1763994042.304016) vcan0 123#0D28
(1763994042.306452) vcan0 310#00000000
(1763994042.311705) vcan0 240#0000
(1763994042.324515) vcan0 123#0D28
(1763994042.345028) vcan0 123#0D28
(1763994042.362780) vcan0 240#0000
(1763994042.365596) vcan0 123#0D28
(1763994042.386165) vcan0 123#0D28
(1763994042.406808) vcan0 123#0BC0
(1763994042.408529) vcan0 310#00000000
(1763994042.413940) vcan0 240#0000
(1763994042.427332) vcan0 123#0BC0
(1763994042.447889) vcan0 123#0BC0
(1763994042.465200) vcan0 240#0000
(1763994042.468328) vcan0 123#0BC0
(1763994042.488968) vcan0 123#0BC0
(1763994042.509479) vcan0 123#0BF4
(1763994042.510552) vcan0 310#00000000
(1763994042.516097) vcan0 240#0000
(1763994042.529990) vcan0 123#0BF4
(1763994042.550523) vcan0 123#0BF4
(1763994042.567240) vcan0 240#0000
(1763994042.570954) vcan0 123#0BF4
(1763994042.591609) vcan0 123#0BF4
(1763994042.612187) vcan0 123#0CFC
(1763994042.612555) vcan0 310#00000000
(1763994042.618126) vcan0 240#0000
(1763994042.632666) vcan0 123#0CFC
(1763994042.653145) vcan0 123#0CFC
(1763994042.669233) vcan0 240#0000
(1763994042.673612) vcan0 123#0CFC
(1763994042.694128) vcan0 123#0CFC
(1763994042.714766) vcan0 310#00000000
(1763994042.714992) vcan0 123#0BD4
(1763994042.720321) vcan0 240#0000
(1763994042.735310) vcan0 123#0BD4
(1763994042.755839) vcan0 123#0BD4
(1763994042.771399) vcan0 240#0000
(1763994042.776329) vcan0 123#0BD4
(1763994042.796892) vcan0 123#0BD4
(1763994042.816746) vcan0 310#00000000
(1763994042.817313) vcan0 123#0CDC
(1763994042.819030) vcan0 500#0D0E0F10
(1763994042.822437) vcan0 240#0000
(1763994042.837859) vcan0 123#0CDC
(1763994042.858373) vcan0 123#0CDC
(1763994042.873564) vcan0 240#0000
(1763994042.878865) vcan0 123#0CDC
(1763994042.899364) vcan0 123#0CDC
(1763994042.918824) vcan0 310#00000000
(1763994042.919776) vcan0 123#0C50
(1763994042.924601) vcan0 240#0000
(1763994042.940302) vcan0 123#0C50
(1763994042.960843) vcan0 123#0C50
(1763994042.975724) vcan0 240#0000
(1763994042.981345) vcan0 123#0C50
(1763994043.001869) vcan0 123#0C50
(1763994043.020991) vcan0 310#00000000
(1763994043.022343) vcan0 123#0CC0
(1763994043.026750) vcan0 240#0000
(1763994043.042825) vcan0 123#0CC0
(1763994043.063335) vcan0 123#0CC0
(1763994043.077810) vcan0 240#0000
(1763994043.083824) vcan0 123#0CC0
(1763994043.104455) vcan0 123#0CC0
(1763994043.123037) vcan0 310#00000000
(1763994043.124880) vcan0 123#0CA0
(1763994043.128881) vcan0 240#0000
(1763994043.145337) vcan0 123#0CA0
(1763994043.165895) vcan0 123#0CA0
(1763994043.179970) vcan0 240#0000
(1763994043.186326) vcan0 123#0CA0
(1763994043.206865) vcan0 123#0CA0
(1763994043.225029) vcan0 310#00000000
(1763994043.227366) vcan0 123#0C54
(1763994043.231014) vcan0 240#0000
(1763994043.247844) vcan0 123#0C54
(1763994043.268353) vcan0 123#0C54
(1763994043.282120) vcan0 240#0000
(1763994043.288846) vcan0 123#0C54
(1763994043.309357) vcan0 123#0C54
(1763994043.327078) vcan0 310#00000000
(1763994043.329836) vcan0 123#0D0C
(1763994043.333168) vcan0 240#0000
(1763994043.350358) vcan0 123#0D0C
(1763994043.370960) vcan0 123#0D0C
(1763994043.384278) vcan0 240#0000
(1763994043.391469) vcan0 123#0D0C
(1763994043.412085) vcan0 123#0D0C
(1763994043.429170) vcan0 310#00000000
(1763994043.432570) vcan0 123#0D34
(1763994043.435323) vcan0 240#0000
(1763994043.453053) vcan0 123#0D34
(1763994043.473585) vcan0 123#0D34
(1763994043.486434) vcan0 240#0000
(1763994043.494094) vcan0 123#0D34
(1763994043.514597) vcan0 123#0D34
(1763994043.531220) vcan0 310#00000000
(1763994043.535153) vcan0 123#0D30
(1763994043.537511) vcan0 240#0000
(1763994043.555650) vcan0 123#0D30
(1763994043.576186) vcan0 123#0D30
(1763994043.587816) vcan0 240#0000
(1763994043.596654) vcan0 123#0D30
(1763994043.617134) vcan0 123#0D30
(1763994043.633194) vcan0 310#00000000
(1763994043.637757) vcan0 123#0CAC
(1763994043.638777) vcan0 240#0000
(1763994043.658269) vcan0 123#0CAC
(1763994043.678789) vcan0 123#0CAC
(1763994043.689945) vcan0 240#0000
(1763994043.699404) vcan0 123#0CAC
(1763994043.719918) vcan0 123#0CAC
(1763994043.735311) vcan0 310#00000000
(1763994043.740434) vcan0 123#0C1C
(1763994043.741112) vcan0 240#0000
(1763994043.760938) vcan0 123#0C1C
(1763994043.781453) vcan0 123#0C1C
(1763994043.792199) vcan0 240#0000
(1763994043.801968) vcan0 123#0C1C
(1763994043.822499) vcan0 123#0C1C
(1763994043.824555) vcan0 500#0D0E0F10
(1763994043.837371) vcan0 310#00000000
(1763994043.843007) vcan0 123#0C78
(1763994043.843361) vcan0 240#0000
(1763994043.863581) vcan0 123#0C78
(1763994043.884090) vcan0 123#0C78
(1763994043.894525) vcan0 240#0000
(1763994043.904602) vcan0 123#0C78
(1763994043.925097) vcan0 123#0C78
(1763994043.939359) vcan0 310#00000000
(1763994043.945685) vcan0 123#0C34
(1763994043.946107) vcan0 240#0000
(1763994043.966648) vcan0 123#0C34
(1763994043.987262) vcan0 123#0C34
(1763994043.997593) vcan0 240#0000
(1763994044.008188) vcan0 123#0C34
(1763994044.028777) vcan0 123#0C34
(1763994044.041711) vcan0 310#00000000
(1763994044.048864) vcan0 240#0000
(1763994044.049514) vcan0 123#0C54
(1763994044.070011) vcan0 123#0C54
(1763994044.090688) vcan0 123#0C54
(1763994044.100368) vcan0 240#0000
(1763994044.111304) vcan0 123#0C54
(1763994044.132517) vcan0 123#0D0C
(1763994044.143733) vcan0 310#00000000
(1763994044.152007) vcan0 240#0000
(1763994044.153280) vcan0 123#0D0C
(1763994044.174133) vcan0 123#0D0C
(1763994044.195230) vcan0 123#0D0C
(1763994044.203458) vcan0 240#0000
(1763994044.216080) vcan0 123#0D0C
(1763994044.237143) vcan0 123#0C68
(1763994044.246154) vcan0 310#00000000
(1763994044.254937) vcan0 240#0000
(1763994044.258121) vcan0 123#0C68
(1763994044.279065) vcan0 123#0C68
(1763994044.299933) vcan0 123#0C68
(1763994044.306237) vcan0 240#0000
(1763994044.321121) vcan0 123#0C68
(1763994044.341929) vcan0 123#0CF0
(1763994044.348655) vcan0 310#00000000
(1763994044.357497) vcan0 240#0000
(1763994044.362829) vcan0 123#0CF0
(1763994044.383816) vcan0 123#0CF0
(1763994044.404535) vcan0 123#0CF0
(1763994044.408956) vcan0 240#0000
(1763994044.425471) vcan0 123#0CF0
(1763994044.445865) vcan0 123#0ED0
(1763994044.450562) vcan0 310#01000000
(1763994044.460031) vcan0 240#0000
(1763994044.466915) vcan0 123#0ED0
(1763994044.487894) vcan0 123#0ED0
(1763994044.509020) vcan0 123#0ED0
(1763994044.511831) vcan0 240#0000
(1763994044.530151) vcan0 123#0ED0
(1763994044.550927) vcan0 123#10B0
(1763994044.553265) vcan0 310#01000000
(1763994044.563342) vcan0 240#0000
(1763994044.571933) vcan0 123#10B0
(1763994044.592906) vcan0 123#10B0
(1763994044.614249) vcan0 240#0000
(1763994044.614731) vcan0 123#10B0
(1763994044.635375) vcan0 123#10B0
(1763994044.656109) vcan0 310#01000000
(1763994044.656512) vcan0 123#1290
(1763994044.665354) vcan0 240#0000
(1763994044.677085) vcan0 123#1290
(1763994044.697304) vcan0 123#1290
(1763994044.716453) vcan0 240#0000
(1763994044.717597) vcan0 123#1290
(1763994044.738163) vcan0 123#1290
(1763994044.758340) vcan0 310#01000000
(1763994044.758802) vcan0 123#1470
(1763994044.767650) vcan0 240#0000
(1763994044.779446) vcan0 123#1470
(1763994044.800564) vcan0 123#1470
(1763994044.819475) vcan0 240#0000
(1763994044.821410) vcan0 123#1470
(1763994044.831055) vcan0 500#0D0E0F10
(1763994044.842277) vcan0 123#1470
(1763994044.861199) vcan0 310#01000000
(1763994044.862977) vcan0 123#1650
(1763994044.870945) vcan0 240#0000
(1763994044.883881) vcan0 123#1650
(1763994044.904696) vcan0 123#1650
(1763994044.922279) vcan0 240#0000
(1763994044.925392) vcan0 123#1650
(1763994044.946392) vcan0 123#1650
(1763994044.964036) vcan0 310#01000000
(1763994044.967456) vcan0 123#1830
(1763994044.973724) vcan0 240#0000
(1763994044.988501) vcan0 123#1830
(1763994045.009366) vcan0 123#1830
(1763994045.025019) vcan0 240#0000
(1763994045.030291) vcan0 123#1830
(1763994045.051451) vcan0 123#1830
(1763994045.066404) vcan0 310#01000000
(1763994045.072112) vcan0 123#1A10
(1763994045.076763) vcan0 240#0000
(1763994045.092904) vcan0 123#1A10
(1763994045.114044) vcan0 123#1A10
(1763994045.128502) vcan0 240#0000
(1763994045.135197) vcan0 123#1A10
(1763994045.156145) vcan0 123#1A10
(1763994045.169420) vcan0 310#01000000
(1763994045.176868) vcan0 123#1BF0
(1763994045.180030) vcan0 240#0000
(1763994045.197968) vcan0 123#1BF0
(1763994045.218692) vcan0 123#1BF0
(1763994045.231793) vcan0 240#0000
(1763994045.239789) vcan0 123#1BF0
(1763994045.260049) vcan0 123#1DD0
(1763994045.271590) vcan0 310#01000000
(1763994045.281046) vcan0 123#1DD0
(1763994045.283504) vcan0 240#0000
(1763994045.301820) vcan0 123#1DD0
(1763994045.322840) vcan0 123#1DD0
(1763994045.335035) vcan0 240#0000
(1763994045.343970) vcan0 123#1DD0
(1763994045.364759) vcan0 123#1FB0
(1763994045.374046) vcan0 310#01000000
(1763994045.385202) vcan0 123#1FB0
(1763994045.386623) vcan0 240#0000
(1763994045.406066) vcan0 123#1FB0
(1763994045.426915) vcan0 123#1FB0
(1763994045.438010) vcan0 240#0000
(1763994045.447947) vcan0 123#1FB0
(1763994045.469110) vcan0 123#2190
(1763994045.476814) vcan0 310#01000000
(1763994045.489816) vcan0 240#0000
(1763994045.490169) vcan0 123#2190
(1763994045.510658) vcan0 123#2190
(1763994045.531344) vcan0 123#2190
(1763994045.541148) vcan0 240#0000
(1763994045.552208) vcan0 123#2190
(1763994045.573162) vcan0 123#2370
(1763994045.579865) vcan0 310#01000000
(1763994045.592771) vcan0 240#0000
(1763994045.593720) vcan0 123#2370
(1763994045.614717) vcan0 123#2370
(1763994045.635700) vcan0 123#2370
(1763994045.643560) vcan0 240#0000
(1763994045.656761) vcan0 123#2370
(1763994045.677964) vcan0 123#2550
(1763994045.682096) vcan0 310#01000000
(1763994045.694948) vcan0 240#0000
(1763994045.698718) vcan0 123#2550
(1763994045.719726) vcan0 123#2550
(1763994045.740659) vcan0 123#2550
(1763994045.746560) vcan0 240#0000
(1763994045.761376) vcan0 123#2550
(1763994045.782013) vcan0 123#2730
(1763994045.784765) vcan0 310#01000000
(1763994045.797711) vcan0 240#0000
(1763994045.802377) vcan0 123#2730
(1763994045.823549) vcan0 123#2730
(1763994045.836667) vcan0 500#0D0E0F10
(1763994045.844360) vcan0 123#2730
(1763994045.849182) vcan0 240#0000
(1763994045.865325) vcan0 123#2730
(1763994045.886401) vcan0 123#2910
(1763994045.886976) vcan0 310#01000000
(1763994045.900922) vcan0 240#0000
(1763994045.907374) vcan0 123#2910
(1763994045.928406) vcan0 123#2910
(1763994045.949486) vcan0 123#2910
(1763994045.952620) vcan0 240#0000
(1763994045.970589) vcan0 123#2910
(1763994045.989720) vcan0 310#01000000
(1763994045.991056) vcan0 123#2AF0
(1763994046.004194) vcan0 240#0000
(1763994046.011980) vcan0 123#2AF0
(1763994046.032995) vcan0 123#2AF0
(1763994046.053948) vcan0 123#2AF0
(1763994046.055717) vcan0 240#0000
(1763994046.074681) vcan0 123#2AF0
(1763994046.092364) vcan0 310#01000000
(1763994046.095768) vcan0 123#2CD0
(1763994046.107132) vcan0 240#0000
(1763994046.116753) vcan0 123#2CD0
(1763994046.137481) vcan0 123#2CD0
(1763994046.158540) vcan0 240#0000
(1763994046.158876) vcan0 123#2CD0
(1763994046.179795) vcan0 123#2CD0
(1763994046.194893) vcan0 310#01000000
(1763994046.200784) vcan0 123#2EB0
(1763994046.210065) vcan0 240#0000
(1763994046.221447) vcan0 123#2EB0
(1763994046.242617) vcan0 123#2EB0
(1763994046.261865) vcan0 240#0000
(1763994046.263404) vcan0 123#2EB0
(1763994046.284069) vcan0 123#2EB0
(1763994046.297749) vcan0 310#01000000
(1763994046.305021) vcan0 123#3090
(1763994046.313608) vcan0 240#0000
(1763994046.325593) vcan0 123#3090
(1763994046.346780) vcan0 123#3090
(1763994046.365248) vcan0 240#0000
(1763994046.367537) vcan0 123#3090
(1763994046.388338) vcan0 123#3090
(1763994046.399864) vcan0 310#01000000
(1763994046.409446) vcan0 123#3270
(1763994046.416556) vcan0 240#0000
(1763994046.430372) vcan0 123#3270
(1763994046.451312) vcan0 123#3270
(1763994046.468123) vcan0 240#0000
(1763994046.472166) vcan0 123#3270
(1763994046.492978) vcan0 123#3270
(1763994046.502564) vcan0 310#01000000
(1763994046.514085) vcan0 123#3450
(1763994046.519818) vcan0 240#0000
(1763994046.535187) vcan0 123#3450
(1763994046.555883) vcan0 123#3450
(1763994046.571552) vcan0 240#0000
(1763994046.576663) vcan0 123#3450
(1763994046.597374) vcan0 123#3630
(1763994046.605304) vcan0 310#01000000
(1763994046.618451) vcan0 123#3630
(1763994046.622873) vcan0 240#0000
(1763994046.639461) vcan0 123#3630
(1763994046.660684) vcan0 123#3630
(1763994046.673940) vcan0 240#0000
(1763994046.681766) vcan0 123#3630
(1763994046.702757) vcan0 123#2870
(1763994046.708205) vcan0 310#02000000
(1763994046.723818) vcan0 123#2870
(1763994046.725401) vcan0 240#0000
(1763994046.744972) vcan0 123#2870
(1763994046.765835) vcan0 123#2870
(1763994046.776969) vcan0 240#0000
(1763994046.786826) vcan0 123#2870
(1763994046.807773) vcan0 123#2A50
(1763994046.810664) vcan0 310#02000000
(1763994046.828564) vcan0 240#0000
(1763994046.828917) vcan0 123#2A50
(1763994046.841946) vcan0 500#0D0E0F10
(1763994046.849900) vcan0 123#2A50
(1763994046.871001) vcan0 123#2A50
(1763994046.879847) vcan0 240#0000
(1763994046.891464) vcan0 123#2A50
(1763994046.912697) vcan0 123#2C30
(1763994046.913032) vcan0 310#02000000
(1763994046.931261) vcan0 240#0000
(1763994046.933800) vcan0 123#2C30
(1763994046.954768) vcan0 123#2C30
(1763994046.975425) vcan0 123#2C30
(1763994046.982703) vcan0 240#0000
(1763994046.996385) vcan0 123#2C30
(1763994047.015663) vcan0 310#02000000
(1763994047.017192) vcan0 123#2E10
(1763994047.034297) vcan0 240#0000
(1763994047.038070) vcan0 123#2E10
(1763994047.059084) vcan0 123#2E10
(1763994047.080054) vcan0 123#2E10
(1763994047.085960) vcan0 240#0000
(1763994047.100832) vcan0 123#2E10
(1763994047.118151) vcan0 310#02000000
(1763994047.122044) vcan0 123#2FF0
(1763994047.137588) vcan0 240#0000
(1763994047.143001) vcan0 123#2FF0
(1763994047.164132) vcan0 123#2FF0
(1763994047.185094) vcan0 123#2FF0
(1763994047.189033) vcan0 240#0000
(1763994047.205795) vcan0 123#2FF0
(1763994047.220259) vcan0 310#02000000
(1763994047.226292) vcan0 123#31D0
(1763994047.240416) vcan0 240#0000
(1763994047.247505) vcan0 123#31D0
(1763994047.268448) vcan0 123#31D0
(1763994047.289436) vcan0 123#31D0
(1763994047.292049) vcan0 240#0000
(1763994047.309948) vcan0 123#31D0
(1763994047.322934) vcan0 310#02000000
(1763994047.330855) vcan0 123#33B0
(1763994047.343653) vcan0 240#0000
(1763994047.351501) vcan0 123#33B0
(1763994047.372489) vcan0 123#33B0
(1763994046.805023) vcan0 123#33B0
(1763994046.806048) vcan0 240#0000
(1763994046.825739) vcan0 123#33B0
(1763994046.837286) vcan0 310#02000000
(1763994046.846405) vcan0 123#3590
(1763994046.857944) vcan0 240#0000
(1763994046.867353) vcan0 123#3590
(1763994046.888026) vcan0 123#3590
(1763994046.908979) vcan0 123#3590
(1763994046.909179) vcan0 240#0000
(1763994046.929775) vcan0 123#3590
(1763994046.940140) vcan0 310#03000000
(1763994046.950980) vcan0 123#27D0
(1763994046.960943) vcan0 240#0000
(1763994046.971699) vcan0 123#27D0
(1763994046.992686) vcan0 123#27D0
(1763994047.012520) vcan0 240#0000
(1763994047.013237) vcan0 123#27D0
(1763994047.034060) vcan0 123#29B0
(1763994047.042724) vcan0 310#03000000
(1763994047.054857) vcan0 123#29B0
(1763994047.064139) vcan0 240#0000
(1763994047.075517) vcan0 123#29B0
(1763994047.096494) vcan0 123#29B0
(1763994047.115946) vcan0 240#0000
(1763994047.117178) vcan0 123#29B0
(1763994047.138173) vcan0 123#2B90
(1763994047.145192) vcan0 310#03000000
(1763994047.158903) vcan0 123#2B90
(1763994047.167438) vcan0 240#0000
(1763994047.179736) vcan0 123#2B90
(1763994047.200974) vcan0 123#2B90
(1763994047.219040) vcan0 240#0000
(1763994047.222026) vcan0 123#2B90
(1763994047.242958) vcan0 123#2D70
(1763994047.247893) vcan0 310#03000000
(1763994047.259088) vcan0 500#0D0E0F10
(1763994047.263890) vcan0 123#2D70
(1763994047.270569) vcan0 240#0000
(1763994047.284753) vcan0 123#2D70
(1763994047.305903) vcan0 123#2D70
(1763994047.322315) vcan0 240#0000
(1763994047.326674) vcan0 123#2D70
(1763994047.347253) vcan0 123#2F50
(1763994047.350113) vcan0 310#03000000
(1763994047.367812) vcan0 123#2F50
(1763994047.373500) vcan0 240#0000
(1763994047.388473) vcan0 123#2F50
(1763994047.409706) vcan0 123#2F50
(1763994047.425493) vcan0 240#0000
(1763994047.430569) vcan0 123#2F50
(1763994047.451594) vcan0 123#3130
(1763994047.452434) vcan0 310#03000000
(1763994047.472335) vcan0 123#3130
(1763994047.476291) vcan0 240#0000
(1763994047.493365) vcan0 123#3130
(1763994047.514320) vcan0 123#3130
(1763994047.527367) vcan0 240#0000
(1763994047.534851) vcan0 123#3130
(1763994047.554652) vcan0 310#03000000
(1763994047.555413) vcan0 123#3310
(1763994047.576002) vcan0 123#3310
(1763994047.578634) vcan0 240#0000
(1763994047.596646) vcan0 123#3310
(1763994047.617205) vcan0 123#3310
(1763994047.630362) vcan0 240#0000
(1763994047.638345) vcan0 123#3310
(1763994047.657419) vcan0 310#03000000
(1763994047.659348) vcan0 123#34F0
(1763994047.680339) vcan0 123#34F0
(1763994047.681982) vcan0 240#0000
(1763994047.701469) vcan0 123#34F0
(1763994047.722590) vcan0 123#34F0
(1763994047.733790) vcan0 240#0000
(1763994047.743623) vcan0 123#34F0
(1763994047.760156) vcan0 310#04000000
(1763994047.764393) vcan0 123#2730
(1763994047.785390) vcan0 123#2730
(1763994047.785733) vcan0 240#0000
(1763994047.805932) vcan0 123#2730
(1763994047.826754) vcan0 123#2730
(1763994047.836860) vcan0 240#0000
(1763994047.847203) vcan0 123#2730
(1763994047.862333) vcan0 310#04000000
(1763994047.867724) vcan0 123#2910
(1763994047.888638) vcan0 123#2910
(1763994047.888946) vcan0 240#0000
(1763994047.909335) vcan0 123#2910
(1763994047.930351) vcan0 123#2910
(1763994047.940551) vcan0 240#0000
(1763994047.951394) vcan0 123#2910
(1763994047.965114) vcan0 310#04000000
(1763994047.972366) vcan0 123#2AF0
(1763994047.991875) vcan0 240#0000
(1763994047.992885) vcan0 123#2AF0
(1763994048.013850) vcan0 123#2AF0
(1763994048.034875) vcan0 123#2AF0
(1763994048.043563) vcan0 240#0000
(1763994048.055395) vcan0 123#2AF0
(1763994048.067647) vcan0 310#04000000
(1763994048.076448) vcan0 123#2CD0
(1763994048.094924) vcan0 240#0000
(1763994048.097441) vcan0 123#2CD0
(1763994048.118432) vcan0 123#2CD0
(1763994048.139102) vcan0 123#2CD0
(1763994048.146423) vcan0 240#0000
(1763994048.160055) vcan0 123#2CD0
(1763994048.170163) vcan0 310#04000000
(1763994048.180794) vcan0 123#2EB0
(1763994048.197768) vcan0 240#0000
(1763994048.201856) vcan0 123#2EB0
(1763994048.222885) vcan0 123#2EB0
(1763994048.243929) vcan0 123#2EB0
(1763994048.249083) vcan0 240#0000
(1763994048.263745) vcan0 500#0D0E0F10
(1763994048.264470) vcan0 123#2EB0
(1763994048.272853) vcan0 310#04000000
(1763994048.285387) vcan0 123#3090
(1763994048.300485) vcan0 240#0000
(1763994048.306253) vcan0 123#3090
(1763994048.327285) vcan0 123#3090
(1763994048.348280) vcan0 123#3090
(1763994048.351887) vcan0 240#0000
(1763994048.368856) vcan0 123#3270
(1763994048.375528) vcan0 310#04000000
(1763994048.389919) vcan0 123#3270
(1763994048.403608) vcan0 240#0000
(1763994048.410876) vcan0 123#3270
(1763994048.431547) vcan0 123#3270
(1763994048.452281) vcan0 123#3270
(1763994048.455237) vcan0 240#0000
(1763994048.473231) vcan0 123#3450
(1763994048.478268) vcan0 310#04000000
(1763994048.494284) vcan0 123#3450
(1763994048.506669) vcan0 240#0000
(1763994048.515236) vcan0 123#3450
(1763994048.535990) vcan0 123#3450
(1763994048.557247) vcan0 123#3450
(1763994048.557771) vcan0 240#0000
(1763994048.578123) vcan0 123#3630
(1763994048.580955) vcan0 310#04000000
(1763994048.598848) vcan0 123#3630
(1763994048.609650) vcan0 240#0000
(1763994048.619657) vcan0 123#3630
(1763994048.640424) vcan0 123#3630
(1763994048.661130) vcan0 240#0000
(1763994048.661474) vcan0 123#3630
(1763994048.682535) vcan0 123#2870
(1763994048.683042) vcan0 310#05000000
(1763994048.703554) vcan0 123#2870
(1763994048.712583) vcan0 240#0000
(1763994048.724210) vcan0 123#2870
(1763994048.745269) vcan0 123#2870
(1763994048.764209) vcan0 240#0000
(1763994048.765852) vcan0 123#2870
(1763994048.785914) vcan0 310#05000000
(1763994048.786712) vcan0 123#2848
(1763994048.807666) vcan0 123#2848
(1763994048.815818) vcan0 240#0000
(1763994048.827916) vcan0 123#2848
(1763994048.848675) vcan0 123#2848
(1763994048.867455) vcan0 240#0000
(1763994048.869678) vcan0 123#2848
(1763994048.888595) vcan0 310#05000000
(1763994048.890414) vcan0 123#2820
(1763994048.911380) vcan0 123#2820
(1763994048.919176) vcan0 240#0000
(1763994048.932460) vcan0 123#2820
(1763994048.953422) vcan0 123#2820
(1763994048.970926) vcan0 240#0000
(1763994048.974113) vcan0 123#2820
(1763994048.991137) vcan0 310#05000000
(1763994048.994905) vcan0 123#27F8
(1763994049.015939) vcan0 123#27F8
(1763994049.022701) vcan0 240#0000
(1763994049.036421) vcan0 123#27F8
(1763994049.056978) vcan0 123#27F8
(1763994049.073761) vcan0 240#0000
(1763994049.077618) vcan0 123#27F8
(1763994049.093269) vcan0 310#05000000
(1763994049.098164) vcan0 123#27D0
(1763994049.118841) vcan0 123#27D0
(1763994049.124994) vcan0 240#0000
(1763994049.139213) vcan0 123#27D0
(1763994049.159743) vcan0 123#27D0
(1763994049.176326) vcan0 240#0000
(1763994049.180353) vcan0 123#27D0
(1763994049.195456) vcan0 310#05000000
(1763994049.200906) vcan0 123#27A8
(1763994049.221461) vcan0 123#27A8
(1763994049.227534) vcan0 240#0000
(1763994049.242029) vcan0 123#27A8
(1763994049.262639) vcan0 123#27A8
(1763994049.267416) vcan0 500#0D0E0F10
(1763994049.278725) vcan0 240#0000
(1763994049.283143) vcan0 123#27A8
(1763994049.297706) vcan0 310#05000000
(1763994049.303700) vcan0 123#2780
(1763994049.324302) vcan0 123#2780
(1763994049.329892) vcan0 240#0000
(1763994049.344815) vcan0 123#2780
(1763994049.365392) vcan0 123#2780
(1763994049.381089) vcan0 240#0000
(1763994049.385923) vcan0 123#2780
(1763994049.399982) vcan0 310#05000000
(1763994049.406488) vcan0 123#2758
(1763994049.427047) vcan0 123#2758
(1763994049.432330) vcan0 240#0000
(1763994049.447545) vcan0 123#2758
(1763994049.468133) vcan0 123#2758
(1763994049.483525) vcan0 240#0000
(1763994049.488701) vcan0 123#2758
(1763994049.502282) vcan0 310#05000000
(1763994049.509271) vcan0 123#2730
(1763994049.529817) vcan0 123#2730
(1763994049.534712) vcan0 240#0000
(1763994049.550383) vcan0 123#2730
(1763994049.570923) vcan0 123#2730
(1763994049.585918) vcan0 240#0000
(1763994049.591474) vcan0 123#2730
(1763994049.604540) vcan0 310#05000000
(1763994049.612035) vcan0 123#2708
(1763994049.632679) vcan0 123#2708
(1763994049.637679) vcan0 240#0000
(1763994049.653827) vcan0 123#2708
(1763994049.674344) vcan0 123#2708
(1763994049.688675) vcan0 240#0000
(1763994049.694878) vcan0 123#2708
(1763994049.706832) vcan0 310#05000000
(1763994049.715492) vcan0 123#26E0
(1763994049.736025) vcan0 123#26E0
(1763994049.739862) vcan0 240#0000
(1763994049.756579) vcan0 123#26E0
(1763994049.777141) vcan0 123#26E0
(1763994049.791040) vcan0 240#0000
(1763994049.797717) vcan0 123#26E0
(1763994049.809204) vcan0 310#05000000
(1763994049.818280) vcan0 123#26B8
(1763994049.838914) vcan0 123#26B8
(1763994049.842215) vcan0 240#0000
(1763994049.859593) vcan0 123#26B8
(1763994049.880161) vcan0 123#26B8
(1763994049.893926) vcan0 240#0000
(1763994049.900729) vcan0 123#26B8
(1763994049.911473) vcan0 310#05000000
(1763994049.921315) vcan0 123#2690
(1763994049.941870) vcan0 123#2690
(1763994049.945120) vcan0 240#0000
(1763994049.962403) vcan0 123#2690
(1763994049.983046) vcan0 123#2690
(1763994049.996329) vcan0 240#0000
(1763994050.003623) vcan0 123#2690
(1763994050.013772) vcan0 310#05000000
(1763994050.024202) vcan0 123#2668
(1763994050.044801) vcan0 123#2668
(1763994050.047506) vcan0 240#0000
(1763994050.065312) vcan0 123#2668
(1763994050.085885) vcan0 123#2668
(1763994050.098711) vcan0 240#0000
(1763994050.106409) vcan0 123#2668
(1763994050.116014) vcan0 310#05000000
(1763994050.126923) vcan0 123#2640
(1763994050.147738) vcan0 123#2640
(1763994050.149906) vcan0 240#0000
(1763994050.168068) vcan0 123#2640
(1763994050.188599) vcan0 123#2640
(1763994050.201068) vcan0 240#0000
(1763994050.209177) vcan0 123#2640
(1763994050.217950) vcan0 310#05000000
(1763994050.229717) vcan0 123#2618
(1763994050.250379) vcan0 123#2618
(1763994050.252242) vcan0 240#0000
(1763994050.270442) vcan0 500#0D0E0F10
(1763994050.270938) vcan0 123#2618
(1763994050.291508) vcan0 123#2618
(1763994050.303520) vcan0 240#0000
(1763994050.312081) vcan0 123#2618
(1763994050.320249) vcan0 310#05000000
(1763994050.332622) vcan0 123#25F0
(1763994050.353823) vcan0 123#25F0
(1763994050.355007) vcan0 240#0000
(1763994050.374603) vcan0 123#25F0
(1763994050.395430) vcan0 123#25F0
(1763994050.406216) vcan0 240#0000
(1763994050.415821) vcan0 123#25C8
(1763994050.422503) vcan0 310#05000000
(1763994050.436376) vcan0 123#25C8
(1763994050.456935) vcan0 123#25C8
(1763994050.457397) vcan0 240#0000
(1763994050.477478) vcan0 123#25C8
(1763994050.497990) vcan0 123#25C8
(1763994050.508582) vcan0 240#0000
(1763994050.518543) vcan0 123#25A0
(1763994050.524780) vcan0 310#05000000
(1763994050.539080) vcan0 123#25A0
(1763994050.559675) vcan0 123#25A0
(1763994050.560096) vcan0 240#0000
(1763994050.580234) vcan0 123#25A0
(1763994050.600777) vcan0 123#25A0
(1763994050.610950) vcan0 240#0000
(1763994050.621291) vcan0 123#2578
(1763994050.627021) vcan0 310#05000000
(1763994050.641936) vcan0 123#2578
(1763994050.662179) vcan0 240#0000
(1763994050.662460) vcan0 123#2578
(1763994050.683131) vcan0 123#2578
(1763994050.703710) vcan0 123#2578
(1763994050.713419) vcan0 240#0000
(1763994050.724258) vcan0 123#2550
(1763994050.729306) vcan0 310#05000000
(1763994050.744860) vcan0 123#2550
(1763994050.764623) vcan0 240#0000
(1763994050.765338) vcan0 123#2550
(1763994050.785898) vcan0 123#2550
(1763994050.806482) vcan0 123#2550
(1763994050.815848) vcan0 240#0000
(1763994050.826958) vcan0 123#2528
(1763994050.831559) vcan0 310#05000000
(1763994050.847147) vcan0 123#2528
(1763994050.867058) vcan0 240#0000
(1763994050.867664) vcan0 123#2528
(1763994050.888344) vcan0 123#2528
(1763994050.908910) vcan0 123#2528
(1763994050.918279) vcan0 240#0000
(1763994050.929415) vcan0 123#2500
(1763994050.933796) vcan0 310#05000000
(1763994050.949986) vcan0 123#2500
(1763994050.969609) vcan0 240#0000
(1763994050.970505) vcan0 123#2500
(1763994050.991130) vcan0 123#2500
(1763994051.011670) vcan0 123#2500
(1763994051.020791) vcan0 240#0000
(1763994051.032214) vcan0 123#24D8
(1763994051.036061) vcan0 310#05000000
(1763994051.052759) vcan0 123#24D8
(1763994051.072041) vcan0 240#0000
(1763994051.073300) vcan0 123#24D8
(1763994051.093868) vcan0 123#24D8
(1763994051.114449) vcan0 123#24D8
(1763994051.123219) vcan0 240#0000
(1763994051.134939) vcan0 123#24B0
(1763994051.138331) vcan0 310#05000000
(1763994051.155503) vcan0 123#24B0
(1763994051.174432) vcan0 240#0000
(1763994051.176048) vcan0 123#24B0
(1763994051.196673) vcan0 123#24B0
(1763994051.217300) vcan0 123#24B0
(1763994051.225658) vcan0 240#0000
(1763994051.237757) vcan0 123#2488
(1763994051.240438) vcan0 310#05000000
(1763994051.258340) vcan0 123#2488
(1763994051.273439) vcan0 500#0D0E0F10
(1763994051.276801) vcan0 240#0000
(1763994051.278848) vcan0 123#2488
(1763994051.299408) vcan0 123#2488
(1763994051.319975) vcan0 123#2488
(1763994051.327974) vcan0 240#0000
(1763994051.340536) vcan0 123#2460
(1763994051.342758) vcan0 310#05000000
(1763994051.361236) vcan0 123#2460
(1763994051.379252) vcan0 240#0000
(1763994051.381802) vcan0 123#2460
(1763994051.402371) vcan0 123#2460
(1763994051.422986) vcan0 123#2460
(1763994051.430442) vcan0 240#0000
(1763994051.443650) vcan0 123#2438
(1763994051.445052) vcan0 310#05000000
(1763994051.464065) vcan0 123#2438
(1763994051.481009) vcan0 240#0000
(1763994051.484637) vcan0 123#2438
(1763994051.505293) vcan0 123#2438
(1763994051.525812) vcan0 123#2438
(1763994051.532155) vcan0 240#0000
(1763994051.546375) vcan0 123#2410
(1763994051.547117) vcan0 310#05000000
(1763994051.566932) vcan0 123#2410
(1763994051.583369) vcan0 240#0000
(1763994051.587497) vcan0 123#2410
(1763994051.608026) vcan0 123#2410
(1763994051.628651) vcan0 123#2410
(1763994051.634653) vcan0 240#0000
(1763994051.649373) vcan0 123#23E8
(1763994051.649535) vcan0 310#05000000
(1763994051.669890) vcan0 123#23E8
(1763994051.686231) vcan0 240#0000
(1763994051.690954) vcan0 123#23E8
(1763994051.712023) vcan0 123#23E8
(1763994051.732424) vcan0 123#23E8
(1763994051.737270) vcan0 240#0000
(1763994051.751825) vcan0 310#05000000
(1763994051.753082) vcan0 123#23C0
(1763994051.773647) vcan0 123#23C0
(1763994051.788659) vcan0 240#0000
(1763994051.794208) vcan0 123#23C0
(1763994051.814886) vcan0 123#23C0
(1763994051.835032) vcan0 123#23C0
(1763994051.839833) vcan0 240#0000
(1763994051.854071) vcan0 310#05000000
(1763994051.855566) vcan0 123#2398
(1763994051.876234) vcan0 123#2398
(1763994051.891000) vcan0 240#0000
(1763994051.896796) vcan0 123#2398
(1763994051.917449) vcan0 123#2398
(1763994051.938016) vcan0 123#2398
(1763994051.942247) vcan0 240#0000
(1763994051.956501) vcan0 310#05000000
(1763994051.958679) vcan0 123#2370
(1763994051.979261) vcan0 123#2370
(1763994051.993477) vcan0 240#0000
(1763994051.999832) vcan0 123#2370
(1763994052.020681) vcan0 123#2370
(1763994052.041846) vcan0 123#2370
(1763994052.045232) vcan0 240#0000
(1763994052.059437) vcan0 310#05000000
(1763994052.062791) vcan0 123#2348
(1763994052.083772) vcan0 123#2348
(1763994052.096831) vcan0 240#0000
(1763994052.104457) vcan0 123#2348
(1763994052.125349) vcan0 123#2348
(1763994052.146059) vcan0 123#2348
(1763994052.148344) vcan0 240#0000
(1763994052.162170) vcan0 310#05000000
(1763994052.166927) vcan0 123#2320
(1763994052.187375) vcan0 123#2320
(1763994052.199452) vcan0 240#0000
(1763994052.208015) vcan0 123#2320
(1763994052.228854) vcan0 123#2320
(1763994052.249441) vcan0 123#2320
(1763994052.250623) vcan0 240#0000
(1763994052.264270) vcan0 310#05000000
(1763994052.270011) vcan0 123#22F8
(1763994052.275927) vcan0 500#0D0E0F10
(1763994052.290584) vcan0 123#22F8
(1763994052.301760) vcan0 240#0000
(1763994052.311153) vcan0 123#22F8
(1763994052.331723) vcan0 123#22F8
(1763994052.352342) vcan0 123#22F8
(1763994052.352933) vcan0 240#0000
(1763994052.366548) vcan0 310#05000000
(1763994052.372883) vcan0 123#22D0
(1763994052.393603) vcan0 123#22D0
(1763994052.404157) vcan0 240#0000
(1763994052.414182) vcan0 123#22D0
(1763994052.435030) vcan0 123#22D0
(1763994052.456017) vcan0 123#22D0
(1763994052.456431) vcan0 240#0000
(1763994052.469152) vcan0 310#05000000
(1763994052.476960) vcan0 123#22A8
(1763994052.497851) vcan0 123#22A8
(1763994052.507880) vcan0 240#0000
(1763994052.519263) vcan0 123#22A8
(1763994052.539980) vcan0 123#22A8
(1763994052.559244) vcan0 240#0000
(1763994052.560478) vcan0 123#22A8
(1763994052.571642) vcan0 310#05000000
(1763994052.581751) vcan0 123#2280
(1763994052.602374) vcan0 123#2280
(1763994052.611019) vcan0 240#0000
(1763994052.622968) vcan0 123#2280
(1763994052.643890) vcan0 123#2280
(1763994052.662664) vcan0 240#0000
(1763994052.664890) vcan0 123#2280
(1763994052.674065) vcan0 310#05000000
(1763994052.685504) vcan0 123#2258
(1763994052.706185) vcan0 123#2258
(1763994052.714229) vcan0 240#0000
(1763994052.726732) vcan0 123#2258
(1763994052.747585) vcan0 123#2258
(1763994052.765115) vcan0 240#0000
(1763994052.768427) vcan0 123#2258
(1763994052.775791) vcan0 310#05000000
(1763994052.789182) vcan0 123#2230
(1763994052.809732) vcan0 123#2230
(1763994052.815852) vcan0 240#0000
(1763994052.830079) vcan0 123#2230
(1763994052.850978) vcan0 123#2230
(1763994052.867340) vcan0 240#0000
(1763994052.871476) vcan0 123#2208
(1763994052.877803) vcan0 310#05000000
(1763994052.892238) vcan0 123#2208
(1763994052.913171) vcan0 123#2208
(1763994052.918338) vcan0 240#0000
(1763994052.933845) vcan0 123#2208
(1763994052.954580) vcan0 123#2208
(1763994052.969806) vcan0 240#0000
(1763994052.975514) vcan0 123#21E0
(1763994052.979741) vcan0 310#05000000
(1763994052.996343) vcan0 123#21E0
(1763994053.017143) vcan0 123#21E0
(1763994053.020939) vcan0 240#0000
(1763994053.038131) vcan0 123#21E0
(1763994053.059024) vcan0 123#21E0
(1763994053.072175) vcan0 240#0000
(1763994053.079740) vcan0 123#21B8
(1763994053.081215) vcan0 310#05000000
(1763994053.100557) vcan0 123#21B8
(1763994053.121489) vcan0 123#21B8
(1763994053.123313) vcan0 240#0000
(1763994053.142259) vcan0 123#21B8
(1763994053.162825) vcan0 123#21B8
(1763994053.174129) vcan0 240#0000
(1763994053.183050) vcan0 310#05000000
(1763994053.183536) vcan0 123#2190
(1763994053.204165) vcan0 123#2190
(1763994053.225073) vcan0 123#2190
(1763994053.225865) vcan0 240#0000
(1763994053.245869) vcan0 123#2190
(1763994053.266718) vcan0 123#2190
(1763994053.276412) vcan0 240#0000
(1763994053.277404) vcan0 500#0D0E0F10
(1763994053.284896) vcan0 310#05000000
(1763994053.287492) vcan0 123#2168
(1763994053.308022) vcan0 123#2168
(1763994053.327796) vcan0 240#0000
(1763994053.328485) vcan0 123#2168
(1763994053.349200) vcan0 123#2168
(1763994053.370146) vcan0 123#2168
(1763994053.379138) vcan0 240#0000
(1763994053.386832) vcan0 310#05000000
(1763994053.390697) vcan0 123#2140
(1763994053.411510) vcan0 123#2140
(1763994053.430473) vcan0 240#0000
(1763994053.432250) vcan0 123#2140
(1763994053.452935) vcan0 123#2140
(1763994053.473998) vcan0 123#2140
(1763994053.481793) vcan0 240#0000
(1763994053.488713) vcan0 310#05000000
(1763994053.494625) vcan0 123#2118
(1763994053.515440) vcan0 123#2118
(1763994053.532901) vcan0 240#0000
(1763994053.536025) vcan0 123#2118
(1763994053.556528) vcan0 123#2118
(1763994053.577288) vcan0 123#2118
(1763994053.583804) vcan0 240#0000
(1763994053.590657) vcan0 310#05000000
(1763994053.598200) vcan0 123#20F0
(1763994053.619185) vcan0 123#20F0
(1763994053.635042) vcan0 240#0000
(1763994053.640072) vcan0 123#20F0
(1763994053.660903) vcan0 123#20F0
(1763994053.681605) vcan0 123#20F0
(1763994053.686196) vcan0 240#0000
(1763994053.692470) vcan0 310#05000000
(1763994053.702210) vcan0 123#20C8
(1763994053.723207) vcan0 123#20C8
(1763994053.737769) vcan0 240#0000
(1763994053.744014) vcan0 123#20C8
(1763994053.764757) vcan0 123#20C8
(1763994053.785747) vcan0 123#20C8
(1763994053.788753) vcan0 240#0000
(1763994053.794690) vcan0 310#05000000
(1763994053.806009) vcan0 123#20A0
(1763994053.827271) vcan0 123#20A0
(1763994053.839785) vcan0 240#0000
(1763994053.847625) vcan0 123#20A0
(1763994053.868535) vcan0 123#20A0
(1763994053.889342) vcan0 123#20A0
(1763994053.890644) vcan0 240#0000
(1763994053.896727) vcan0 310#05000000
(1763994053.910222) vcan0 123#2078
(1763994053.931020) vcan0 123#2078
(1763994053.941860) vcan0 240#0000
(1763994053.951945) vcan0 123#2078
(1763994053.972692) vcan0 123#2078
(1763994053.992708) vcan0 240#0000
(1763994053.993035) vcan0 123#2050
(1763994053.998578) vcan0 310#05000000
(1763994054.013547) vcan0 123#2050
(1763994054.033882) vcan0 123#2050
(1763994054.043423) vcan0 240#0000
(1763994054.054272) vcan0 123#2050
(1763994054.074720) vcan0 123#2050
(1763994054.094313) vcan0 240#0000
(1763994054.095089) vcan0 123#2078
(1763994054.099928) vcan0 310#05000000
(1763994054.115566) vcan0 123#2078
(1763994054.135986) vcan0 123#2078
(1763994054.145205) vcan0 240#0000
(1763994054.156363) vcan0 123#2078
(1763994054.176687) vcan0 123#2078
(1763994054.195468) vcan0 240#0000
(1763994054.196969) vcan0 123#2050
(1763994054.201462) vcan0 310#05000000
(1763994054.217349) vcan0 123#2050
(1763994054.237748) vcan0 123#2050
(1763994054.246286) vcan0 240#0000
(1763994054.258111) vcan0 123#2050
(1763994054.278538) vcan0 500#0D0E0F10
(1763994054.278701) vcan0 123#2050
(1763994054.297237) vcan0 240#0000
(1763994054.298977) vcan0 123#2028
(1763994054.303116) vcan0 310#05000000
(1763994054.319478) vcan0 123#2028
(1763994054.339958) vcan0 123#2028
(1763994054.348048) vcan0 240#0000
(1763994054.360356) vcan0 123#2028
(1763994054.380786) vcan0 123#2028
(1763994054.398859) vcan0 240#0000
(1763994054.401192) vcan0 123#2000
(1763994054.404735) vcan0 310#05000000
(1763994054.421608) vcan0 123#2000
(1763994054.442269) vcan0 123#2000
(1763994054.450288) vcan0 240#0000
(1763994054.463151) vcan0 123#2000
(1763994054.483763) vcan0 123#2000
(1763994054.501502) vcan0 240#0100
(1763994054.504518) vcan0 123#1CE0
(1763994054.506555) vcan0 310#05000000
(1763994054.525355) vcan0 123#1CE0
(1763994054.546217) vcan0 123#1CE0
(1763994054.552773) vcan0 240#0100
(1763994054.566754) vcan0 123#1CE0
(1763994054.587297) vcan0 123#1CE0
(1763994054.604046) vcan0 240#0100
(1763994054.607900) vcan0 123#19C0
(1763994054.608387) vcan0 310#05000000
(1763994054.628734) vcan0 123#19C0
(1763994054.649608) vcan0 123#19C0
(1763994054.655290) vcan0 240#0100
(1763994054.670121) vcan0 123#19C0
(1763994054.691132) vcan0 123#19C0
(1763994054.706473) vcan0 240#0100
(1763994054.710044) vcan0 310#04000000
(1763994054.711986) vcan0 123#2320
(1763994054.732935) vcan0 123#2320
(1763994054.753892) vcan0 123#2320
(1763994054.757841) vcan0 240#0100
(1763994054.774698) vcan0 123#2320
(1763994054.795480) vcan0 123#2320
(1763994054.809167) vcan0 240#0100
(1763994054.812007) vcan0 310#04000000
(1763994054.816207) vcan0 123#2000
(1763994054.836883) vcan0 123#2000
(1763994054.857612) vcan0 123#2000
(1763994054.860401) vcan0 240#0100
(1763994054.878333) vcan0 123#2000
(1763994054.899039) vcan0 123#2000
(1763994054.911483) vcan0 240#0100
(1763994054.913809) vcan0 310#04000000
(1763994054.919538) vcan0 123#1CE0
(1763994054.940457) vcan0 123#1CE0
(1763994054.961277) vcan0 123#1CE0
(1763994054.962197) vcan0 240#0100
(1763994054.982241) vcan0 123#1CE0
(1763994055.002816) vcan0 123#1CE0
(1763994055.013370) vcan0 240#0100
(1763994055.015614) vcan0 310#04000000
(1763994055.023425) vcan0 123#19C0
(1763994055.043945) vcan0 123#19C0
(1763994055.064345) vcan0 240#0100
(1763994055.064657) vcan0 123#19C0
(1763994055.084718) vcan0 123#19C0
(1763994055.105152) vcan0 123#19C0
(1763994055.114967) vcan0 240#0100
(1763994055.117011) vcan0 310#03000000
(1763994055.125591) vcan0 123#2320
(1763994055.145930) vcan0 123#2320
(1763994055.165810) vcan0 240#0100
(1763994055.166295) vcan0 123#2320
(1763994055.186719) vcan0 123#2320
(1763994055.207176) vcan0 123#2320
(1763994055.216099) vcan0 240#0100
(1763994055.218671) vcan0 310#03000000
(1763994055.227654) vcan0 123#2000
(1763994055.248139) vcan0 123#2000
(1763994055.267002) vcan0 240#0100
(1763994055.268536) vcan0 123#2000
(1763994055.279272) vcan0 500#0D0E0F10
(1763994055.288952) vcan0 123#2000
(1763994055.309415) vcan0 123#2000
(1763994055.317829) vcan0 240#0100
(1763994055.320152) vcan0 310#03000000
(1763994055.329778) vcan0 123#1CE0
(1763994055.350204) vcan0 123#1CE0
(1763994055.368657) vcan0 240#0100
(1763994055.370612) vcan0 123#1CE0
(1763994055.391104) vcan0 123#1CE0
(1763994055.411642) vcan0 123#1CE0
(1763994055.419478) vcan0 240#0100
(1763994055.421717) vcan0 310#03000000
(1763994055.432061) vcan0 123#19C0
(1763994055.452531) vcan0 123#19C0
(1763994055.469717) vcan0 240#0100
(1763994055.472868) vcan0 123#19C0
(1763994055.493290) vcan0 123#19C0
(1763994055.513822) vcan0 123#19C0
(1763994055.520534) vcan0 240#0100
(1763994055.522868) vcan0 310#02000000
(1763994055.534236) vcan0 123#2320
(1763994055.554648) vcan0 123#2320
(1763994055.571353) vcan0 240#0100
(1763994055.575076) vcan0 123#2320
(1763994055.595506) vcan0 123#2320
(1763994055.615937) vcan0 123#2320
(1763994055.622160) vcan0 240#0100
(1763994055.624371) vcan0 310#02000000
(1763994055.636436) vcan0 123#2000
(1763994055.657104) vcan0 123#2000
(1763994055.673073) vcan0 240#0100
(1763994055.677440) vcan0 123#2000
(1763994055.697977) vcan0 123#2000
(1763994055.718364) vcan0 123#2000
(1763994055.723894) vcan0 240#0100
(1763994055.725898) vcan0 310#02000000
(1763994055.738755) vcan0 123#1CE0
(1763994055.759287) vcan0 123#1CE0
(1763994055.774778) vcan0 240#0100
(1763994055.779595) vcan0 123#1CE0
(1763994055.800106) vcan0 123#1CE0
(1763994055.820557) vcan0 123#1CE0
(1763994055.825636) vcan0 240#0100
(1763994055.827405) vcan0 310#02000000
(1763994055.840947) vcan0 123#19C0
(1763994055.861464) vcan0 123#19C0
(1763994055.876560) vcan0 240#0100
(1763994055.881767) vcan0 123#19C0
(1763994055.902364) vcan0 123#19C0
(1763994055.922780) vcan0 123#19C0
(1763994055.927351) vcan0 240#0100
(1763994055.928939) vcan0 310#01000000
(1763994055.943147) vcan0 123#2320
(1763994055.963557) vcan0 123#2320
(1763994055.978153) vcan0 240#0100
(1763994055.983967) vcan0 123#2320
(1763994056.004472) vcan0 123#2320
(1763994056.024886) vcan0 123#2000
(1763994056.029104) vcan0 240#0100
(1763994056.030507) vcan0 310#01000000
(1763994056.045285) vcan0 123#2000
(1763994056.065688) vcan0 123#2000
(1763994056.080053) vcan0 240#0100
(1763994056.086150) vcan0 123#2000
(1763994056.106546) vcan0 123#2000
(1763994056.127139) vcan0 123#1CE0
(1763994056.130893) vcan0 240#0100
(1763994056.132099) vcan0 310#01000000
(1763994056.148146) vcan0 123#1CE0
(1763994056.168569) vcan0 123#1CE0
(1763994056.181748) vcan0 240#0100
(1763994056.189010) vcan0 123#1CE0
(1763994056.209462) vcan0 123#1CE0
(1763994056.229849) vcan0 123#19C0
(1763994056.232065) vcan0 240#0100
(1763994056.233584) vcan0 310#01000000
(1763994056.250269) vcan0 123#19C0
(1763994056.270803) vcan0 123#19C0
(1763994056.279997) vcan0 500#0D0E0F10
(1763994056.282890) vcan0 240#0100
(1763994056.291347) vcan0 123#19C0
(1763994056.311859) vcan0 123#19C0
(1763994056.332381) vcan0 123#0C80
(1763994056.333749) vcan0 240#0000
(1763994056.335031) vcan0 310#00000000
(1763994056.352857) vcan0 123#0C80
(1763994056.373345) vcan0 123#0C80
(1763994056.384557) vcan0 240#0000
(1763994056.393840) vcan0 123#0C80
(1763994056.414260) vcan0 123#0C80
(1763994056.434679) vcan0 123#0C20
(1763994056.435351) vcan0 240#0000
(1763994056.436547) vcan0 310#00000000
(1763994056.455057) vcan0 123#0C20
(1763994056.475480) vcan0 123#0C20
(1763994056.486131) vcan0 240#0000
(1763994056.495905) vcan0 123#0C20
(1763994056.516328) vcan0 123#0C20
(1763994056.536917) vcan0 123#0BC0
(1763994056.537108) vcan0 240#0000
(1763994056.538113) vcan0 310#00000000
(1763994056.557408) vcan0 123#0BC0
(1763994056.577827) vcan0 123#0BC0
(1763994056.587781) vcan0 240#0000
(1763994056.598282) vcan0 123#0BC0
(1763994056.618687) vcan0 123#0BC0
(1763994056.639108) vcan0 240#0000
(1763994056.639445) vcan0 123#0C20
(1763994056.640303) vcan0 310#00000000
(1763994056.659793) vcan0 123#0C20
(1763994056.680150) vcan0 123#0C20
(1763994056.689811) vcan0 240#0000
(1763994056.700625) vcan0 123#0C20
(1763994056.721105) vcan0 123#0C20
(1763994056.740696) vcan0 240#0000
(1763994056.741252) vcan0 310#00000000
(1763994056.741446) vcan0 123#0CC8
(1763994056.761947) vcan0 123#0CC8
(1763994056.782401) vcan0 123#0CC8
(1763994056.791560) vcan0 240#0000
(1763994056.802760) vcan0 123#0CC8
(1763994056.823390) vcan0 123#0CC8
(1763994056.842383) vcan0 240#0000
(1763994056.842788) vcan0 310#00000000
(1763994056.843795) vcan0 123#0C1C
(1763994056.864509) vcan0 123#0C1C
(1763994056.884999) vcan0 123#0C1C
(1763994056.893218) vcan0 240#0000
(1763994056.905638) vcan0 123#0C1C
(1763994056.926270) vcan0 123#0C1C
(1763994056.944026) vcan0 240#0000
(1763994056.944397) vcan0 310#00000000
(1763994056.946742) vcan0 123#0BFC
(1763994056.967064) vcan0 123#0BFC
(1763994056.987478) vcan0 123#0BFC
(1763994056.994857) vcan0 240#0000
(1763994057.007834) vcan0 123#0BFC
(1763994057.028248) vcan0 123#0BFC
(1763994057.045698) vcan0 240#0000
(1763994057.046232) vcan0 310#00000000
(1763994057.048646) vcan0 123#0C98
(1763994057.069264) vcan0 123#0C98
(1763994057.089661) vcan0 123#0C98
(1763994057.096539) vcan0 240#0000
(1763994057.110042) vcan0 123#0C98
(1763994057.130433) vcan0 123#0C98
(1763994057.147378) vcan0 240#0000
(1763994057.147721) vcan0 310#00000000
(1763994057.150935) vcan0 123#0C54
(1763994057.171450) vcan0 123#0C54
(1763994057.191798) vcan0 123#0C54
(1763994057.198215) vcan0 240#0000
(1763994057.212184) vcan0 123#0C54
(1763994057.232641) vcan0 123#0C54
(1763994057.248942) vcan0 240#0000
(1763994057.249237) vcan0 310#00000000
(1763994057.253005) vcan0 123#0C08
(1763994057.273394) vcan0 123#0C08
(1763994057.280704) vcan0 500#0D0E0F10
(1763994057.293761) vcan0 123#0C08
(1763994057.299422) vcan0 240#0000
(1763994057.314195) vcan0 123#0C08
(1763994057.334608) vcan0 123#0C08
(1763994057.350588) vcan0 240#0000
(1763994057.351190) vcan0 310#00000000
(1763994057.355150) vcan0 123#0BC4
(1763994057.375600) vcan0 123#0BC4
(1763994057.395960) vcan0 123#0BC4
(1763994057.401256) vcan0 240#0000
(1763994057.416373) vcan0 123#0BC4
(1763994057.436859) vcan0 123#0BC4
(1763994057.452045) vcan0 240#0000
(1763994057.452808) vcan0 310#00000000
(1763994057.457277) vcan0 123#0D10
(1763994057.477703) vcan0 123#0D10
(1763994057.498121) vcan0 123#0D10
(1763994057.502868) vcan0 240#0000
(1763994057.518513) vcan0 123#0D10
(1763994057.539012) vcan0 123#0D10
(1763994057.553796) vcan0 240#0000
(1763994057.554339) vcan0 310#00000000
(1763994057.559397) vcan0 123#0BE8
(1763994057.579865) vcan0 123#0BE8
(1763994057.600723) vcan0 123#0BE8
(1763994057.604988) vcan0 240#0000
(1763994057.621257) vcan0 123#0BE8
(1763994057.642230) vcan0 123#0BE8
(1763994057.656248) vcan0 240#0000
(1763994057.656628) vcan0 310#00000000
(1763994057.662828) vcan0 123#0D04
(1763994057.683810) vcan0 123#0D04
(1763994057.704684) vcan0 123#0D04
(1763994057.707297) vcan0 240#0000
(1763994057.725326) vcan0 123#0D04
(1763994057.746246) vcan0 123#0D04
(1763994057.758115) vcan0 240#0000
(1763994057.758312) vcan0 310#00000000
(1763994057.767175) vcan0 123#0D40
(1763994057.788015) vcan0 123#0D40
(1763994057.808870) vcan0 123#0D40
(1763994057.809411) vcan0 240#0000
(1763994057.829809) vcan0 123#0D40
(1763994057.850474) vcan0 123#0D40
(1763994057.859977) vcan0 310#00000000
(1763994057.860357) vcan0 240#0000
(1763994057.870751) vcan0 123#0CF4
(1763994057.891255) vcan0 123#0CF4
(1763994057.910813) vcan0 240#0000
(1763994057.911685) vcan0 123#0CF4
(1763994057.932129) vcan0 123#0CF4
(1763994057.952676) vcan0 123#0CF4
(1763994057.961257) vcan0 310#00000000
(1763994057.961588) vcan0 240#0000
(1763994057.973016) vcan0 123#0CA0
(1763994057.993414) vcan0 123#0CA0
(1763994058.012443) vcan0 240#0000
(1763994058.013836) vcan0 123#0CA0
(1763994058.034256) vcan0 123#0CA0
(1763994058.055270) vcan0 123#0CA0
(1763994058.063156) vcan0 310#00000000
(1763994058.064055) vcan0 240#0000
(1763994058.075706) vcan0 123#0CE8
(1763994058.096349) vcan0 123#0CE8
(1763994058.114514) vcan0 240#0000
(1763994058.117236) vcan0 123#0CE8
(1763994058.137973) vcan0 123#0CE8
(1763994058.158776) vcan0 123#0CE8
(1763994058.164926) vcan0 310#00000000
(1763994058.165286) vcan0 240#0000
(1763994058.179703) vcan0 123#0BDC
(1763994058.200618) vcan0 123#0BDC
(1763994058.216209) vcan0 240#0000
(1763994058.221020) vcan0 123#0BDC
(1763994058.241495) vcan0 123#0BDC
(1763994058.261870) vcan0 123#0BDC
(1763994058.266334) vcan0 310#00000000
(1763994058.266523) vcan0 240#0000
(1763994058.282246) vcan0 123#0CB8
(1763994058.295445) vcan0 500#0D0E0F10
(1763994058.302682) vcan0 123#0CB8
(1763994058.317416) vcan0 240#0000
(1763994058.323049) vcan0 123#0CB8
(1763994058.343569) vcan0 123#0CB8
(1763994058.363957) vcan0 123#0CB8
(1763994058.368441) vcan0 310#00000000
(1763994058.368799) vcan0 240#0000
(1763994058.384805) vcan0 123#0CE8
(1763994058.405718) vcan0 123#0CE8
(1763994058.420028) vcan0 240#0000
(1763994058.426390) vcan0 123#0CE8
(1763994058.446963) vcan0 123#0CE8
(1763994058.467460) vcan0 123#0BEC
(1763994058.470242) vcan0 310#00000000
(1763994058.470831) vcan0 240#0000
(1763994058.488041) vcan0 123#0BEC
(1763994058.508860) vcan0 123#0BEC
(1763994058.522335) vcan0 240#0000
(1763994058.529446) vcan0 123#0BEC
(1763994058.550339) vcan0 123#0BEC
(1763994058.571085) vcan0 123#0D0C
(1763994058.571696) vcan0 310#00000000
(1763994058.573449) vcan0 240#0000
(1763994058.591879) vcan0 123#0D0C
(1763994058.612804) vcan0 123#0D0C
(1763994058.624399) vcan0 240#0000
(1763994058.633715) vcan0 123#0D0C
(1763994058.654208) vcan0 123#0D0C
(1763994058.673838) vcan0 310#00000000
(1763994058.674554) vcan0 123#0C60
(1763994058.675421) vcan0 240#0000
(1763994058.695536) vcan0 123#0C60
(1763994058.716421) vcan0 123#0C60
(1763994058.726770) vcan0 240#0000
(1763994058.737614) vcan0 123#0C60
(1763994058.758150) vcan0 123#0C60
(1763994058.775601) vcan0 310#00000000
(1763994058.778003) vcan0 240#0000
(1763994058.778625) vcan0 123#0C50
(1763994058.799591) vcan0 123#0C50
(1763994058.820407) vcan0 123#0C50
(1763994058.829327) vcan0 240#0000
(1763994058.840810) vcan0 123#0C50
(1763994058.861864) vcan0 123#0C50
(1763994058.877765) vcan0 310#00000000
(1763994058.880611) vcan0 240#0000
(1763994058.882811) vcan0 123#0D0C
(1763994058.903319) vcan0 123#0D0C
(1763994058.923981) vcan0 123#0D0C
(1763994058.931821) vcan0 240#0000
(1763994058.944318) vcan0 123#0D0C
(1763994058.964696) vcan0 123#0D0C
(1763994058.979037) vcan0 310#00000000
(1763994058.982560) vcan0 240#0000
(1763994058.985009) vcan0 123#0C20
(1763994059.005410) vcan0 123#0C20
(1763994059.025789) vcan0 123#0C20
(1763994059.033432) vcan0 240#0000
(1763994059.046177) vcan0 123#0C20
(1763994059.066611) vcan0 123#0C20
(1763994059.080546) vcan0 310#00000000
(1763994059.084260) vcan0 240#0000
(1763994059.086944) vcan0 123#0D14
(1763994059.107338) vcan0 123#0D14
(1763994059.127759) vcan0 123#0D14
(1763994059.135097) vcan0 240#0000
(1763994059.148221) vcan0 123#0D14
(1763994059.168534) vcan0 123#0D14
(1763994059.182033) vcan0 310#00000000
(1763994059.185936) vcan0 240#0000
(1763994059.188878) vcan0 123#0CCC
(1763994059.209292) vcan0 123#0CCC
(1763994059.229680) vcan0 123#0CCC
(1763994059.236772) vcan0 240#0000
(1763994059.250044) vcan0 123#0CCC
(1763994059.270426) vcan0 123#0CCC
(1763994059.283661) vcan0 310#00000000
(1763994059.287260) vcan0 240#0000
(1763994059.290801) vcan0 123#0C8C
(1763994059.309373) vcan0 500#0D0E0F10
(1763994059.311159) vcan0 123#0C8C
(1763994059.331584) vcan0 123#0C8C
(1763994059.338090) vcan0 240#0000
(1763994059.351960) vcan0 123#0C8C
(1763994059.372447) vcan0 123#0C8C
(1763994059.385626) vcan0 310#00000000
(1763994059.389728) vcan0 240#0000
(1763994059.393473) vcan0 123#0D2C
(1763994059.414024) vcan0 123#0D2C
(1763994059.434768) vcan0 123#0D2C
(1763994059.440486) vcan0 240#0000
(1763994059.455454) vcan0 123#0D2C
(1763994059.476187) vcan0 123#0D2C
(1763994059.486218) vcan0 310#00000000
(1763994059.491206) vcan0 240#0000
(1763994059.496797) vcan0 123#0D44
(1763994059.517832) vcan0 123#0D44
(1763994059.538652) vcan0 123#0D44
(1763994059.542479) vcan0 240#0000
(1763994059.559492) vcan0 123#0D44
(1763994059.580261) vcan0 123#0D44
(1763994059.588157) vcan0 310#00000000
(1763994059.593796) vcan0 240#0000
(1763994059.601037) vcan0 123#0CBC
(1763994059.621467) vcan0 123#0CBC
(1763994059.642412) vcan0 123#0CBC
(1763994059.644936) vcan0 240#0000
(1763994059.662990) vcan0 123#0CBC
(1763994059.683985) vcan0 123#0CBC
(1763994059.690194) vcan0 310#00000000
(1763994059.695882) vcan0 240#0000
(1763994059.704894) vcan0 123#0BF0
(1763994059.725814) vcan0 123#0BF0
(1763994059.746455) vcan0 123#0BF0
(1763994059.747242) vcan0 240#0000
(1763994059.767064) vcan0 123#0BF0
(1763994059.787756) vcan0 123#0BF0
(1763994059.792118) vcan0 310#00000000
(1763994059.797371) vcan0 240#0000
(1763994059.808298) vcan0 123#0CC0
(1763994059.829221) vcan0 123#0CC0
(1763994059.848658) vcan0 240#0000
(1763994059.849592) vcan0 123#0CC0
(1763994059.870202) vcan0 123#0CC0
(1763994059.890621) vcan0 123#0C98
(1763994059.894062) vcan0 310#00000000
(1763994059.899874) vcan0 240#0000
(1763994059.911253) vcan0 123#0C98
(1763994059.932155) vcan0 123#0C98
(1763994059.950766) vcan0 240#0000
(1763994059.952523) vcan0 123#0C98
(1763994059.973001) vcan0 123#0C98
(1763994059.993560) vcan0 123#0D2C
(1763994059.995563) vcan0 310#00000000
(1763994060.001667) vcan0 240#0000
(1763994060.014121) vcan0 123#0D2C
(1763994060.034782) vcan0 123#0D2C
(1763994060.052967) vcan0 240#0000
(1763994060.055572) vcan0 123#0D2C
(1763994060.076281) vcan0 123#0D2C
(1763994060.097016) vcan0 123#0C14
(1763994060.097447) vcan0 310#00000000
(1763994060.103962) vcan0 240#0000
(1763994060.117655) vcan0 123#0C14
(1763994060.138325) vcan0 123#0C14
(1763994060.155200) vcan0 240#0000
(1763994060.158873) vcan0 123#0C14
(1763994060.179867) vcan0 123#0C14
(1763994060.199247) vcan0 310#00000000
(1763994060.200235) vcan0 123#0CC8
(1763994060.206447) vcan0 240#0000
(1763994060.220729) vcan0 123#0CC8
(1763994060.241112) vcan0 123#0CC8
(1763994060.257125) vcan0 240#0000
(1763994060.261500) vcan0 123#0CC8
(1763994060.281940) vcan0 123#0CC8
(1763994060.300672) vcan0 310#00000000
(1763994060.302467) vcan0 123#0CC0
(1763994060.307750) vcan0 240#0000
(1763994060.321423) vcan0 500#0D0E0F10
(1763994060.322875) vcan0 123#0CC0
(1763994060.343390) vcan0 123#0CC0
(1763994060.358578) vcan0 240#0000
(1763994060.363892) vcan0 123#0CC0
(1763994060.384457) vcan0 123#0CC0
(1763994060.402298) vcan0 310#00000000
(1763994060.404865) vcan0 123#0C2C
(1763994060.409414) vcan0 240#0000
(1763994060.425321) vcan0 123#0C2C
(1763994060.445815) vcan0 123#0C2C
(1763994060.460876) vcan0 240#0000
(1763994060.466797) vcan0 123#0C2C
(1763994060.487728) vcan0 123#0C2C
(1763994060.504017) vcan0 310#00000000
(1763994060.508535) vcan0 123#0D14
(1763994060.511836) vcan0 240#0000
(1763994060.529129) vcan0 123#0D14
(1763994060.549985) vcan0 123#0D14
(1763994060.562909) vcan0 240#0000
(1763994060.570790) vcan0 123#0D14
(1763994060.591728) vcan0 123#0D14
(1763994060.605953) vcan0 310#00000000
(1763994060.612743) vcan0 123#0C38
(1763994060.613683) vcan0 240#0000
(1763994060.633750) vcan0 123#0C38
(1763994060.654385) vcan0 123#0C38
(1763994060.664818) vcan0 240#0000
(1763994060.675177) vcan0 123#0C38
(1763994060.696108) vcan0 123#0C38
(1763994060.707743) vcan0 310#00000000
(1763994060.715783) vcan0 240#0000
(1763994060.716459) vcan0 123#0CBC
(1763994060.737145) vcan0 123#0CBC
(1763994060.757970) vcan0 123#0CBC
(1763994060.767191) vcan0 240#0000
(1763994060.778616) vcan0 123#0CBC
(1763994060.799264) vcan0 123#0CBC
(1763994060.809766) vcan0 310#00000000
(1763994060.818297) vcan0 240#0000
(1763994060.820025) vcan0 123#0BCC
(1763994060.840918) vcan0 123#0BCC
(1763994060.861825) vcan0 123#0BCC
(1763994060.869889) vcan0 240#0000
(1763994060.882810) vcan0 123#0BCC
(1763994060.903871) vcan0 123#0BCC
(1763994060.912012) vcan0 310#00000000
(1763994060.921767) vcan0 240#0000
(1763994060.924811) vcan0 123#0D00
(1763994060.945716) vcan0 123#0D00
(1763994060.966612) vcan0 123#0D00
(1763994060.973190) vcan0 240#0000
(1763994060.987486) vcan0 123#0D00
(1763994061.008432) vcan0 123#0D00
(1763994061.014355) vcan0 310#00000000
(1763994061.024443) vcan0 240#0000
(1763994061.028906) vcan0 123#0CE8
(1763994061.049543) vcan0 123#0CE8
(1763994061.070294) vcan0 123#0CE8
(1763994061.075579) vcan0 240#0000
(1763994061.090982) vcan0 123#0CE8
(1763994061.111702) vcan0 123#0CE8
(1763994061.116479) vcan0 310#00000000
(1763994061.126887) vcan0 240#0000
(1763994061.132387) vcan0 123#0C94
(1763994061.153388) vcan0 123#0C94
(1763994061.174672) vcan0 123#0C94
(1763994061.178374) vcan0 240#0000
(1763994061.195662) vcan0 123#0C94
(1763994061.216601) vcan0 123#0C48
(1763994061.218794) vcan0 310#00000000
(1763994061.229945) vcan0 240#0000
(1763994061.237587) vcan0 123#0C48
(1763994061.258110) vcan0 123#0C48
(1763994061.278700) vcan0 123#0C48
(1763994061.281415) vcan0 240#0000
(1763994061.299672) vcan0 123#0C48
(1763994061.320831) vcan0 123#0C00
(1763994061.321695) vcan0 310#00000000
(1763994061.332789) vcan0 240#0000
(1763994061.338102) vcan0 500#0D0E0F10
(1763994061.341476) vcan0 123#0C00
(1763994061.362547) vcan0 123#0C00
(1763994061.383652) vcan0 123#0C00
(1763994061.384056) vcan0 240#0000
(1763994061.404396) vcan0 123#0C00
(1763994061.423135) vcan0 310#00000000
(1763994061.425355) vcan0 123#0C3C
(1763994061.435301) vcan0 240#0000
(1763994061.446286) vcan0 123#0C3C
(1763994061.467325) vcan0 123#0C3C
(1763994061.486783) vcan0 240#0000
(1763994061.487768) vcan0 123#0C3C
(1763994061.508871) vcan0 123#0C3C
(1763994061.525607) vcan0 310#00000000
(1763994061.529755) vcan0 123#0D14
(1763994061.538197) vcan0 240#0000
(1763994061.550129) vcan0 123#0D14
(1763994061.571278) vcan0 123#0D14
(1763994061.589674) vcan0 240#0000
(1763994061.592161) vcan0 123#0D14
(1763994061.613098) vcan0 123#0D14
(1763994061.628015) vcan0 310#00000000
(1763994061.633610) vcan0 123#0CF0
(1763994061.641030) vcan0 240#0000
(1763994061.654478) vcan0 123#0CF0
(1763994061.675555) vcan0 123#0CF0
(1763994061.692538) vcan0 240#0000
(1763994061.696505) vcan0 123#0CF0
(1763994061.717472) vcan0 123#0CF0
(1763994061.729942) vcan0 310#00000000
(1763994061.738398) vcan0 123#0BB8
(1763994061.744022) vcan0 240#0000
(1763994061.759407) vcan0 123#0BB8
(1763994061.780129) vcan0 123#0BB8
(1763994061.795590) vcan0 240#0000
(1763994061.800848) vcan0 123#0BB8
(1763994061.821741) vcan0 123#0BB8
(1763994061.831987) vcan0 310#00000000
(1763994061.842520) vcan0 123#0BE4
(1763994061.846836) vcan0 240#0000
(1763994061.863388) vcan0 123#0BE4
(1763994061.884344) vcan0 123#0BE4
(1763994061.898175) vcan0 240#0000
(1763994061.905388) vcan0 123#0BE4
(1763994061.925958) vcan0 123#0BE4
(1763994061.933253) vcan0 310#00000000
(1763994061.947060) vcan0 123#0BE0
(1763994061.949762) vcan0 240#0000
(1763994061.967905) vcan0 123#0BE0
(1763994061.988796) vcan0 123#0BE0
(1763994062.000667) vcan0 240#0000
(1763994062.009480) vcan0 123#0BE0
(1763994062.029931) vcan0 123#0BE0
(1763994062.034799) vcan0 310#00000000
(1763994062.050412) vcan0 123#0CA8
(1763994062.051561) vcan0 240#0000
(1763994062.070986) vcan0 123#0CA8
(1763994062.091581) vcan0 123#0CA8
(1763994062.102699) vcan0 240#0000
(1763994062.112142) vcan0 123#0CA8
(1763994062.133131) vcan0 123#0CA8
(1763994062.137411) vcan0 310#00000000
(1763994062.153811) vcan0 123#0CC0
(1763994062.154140) vcan0 240#0000
(1763994062.174684) vcan0 123#0CC0
(1763994062.195801) vcan0 123#0CC0
(1763994062.205171) vcan0 240#0000
(1763994062.216136) vcan0 123#0CC0
(1763994062.236757) vcan0 123#0CC0
(1763994062.239047) vcan0 310#00000000
(1763994062.256119) vcan0 240#0000
(1763994062.257269) vcan0 123#0C20
(1763994062.278069) vcan0 123#0C20
(1763994062.298575) vcan0 123#0C20
(1763994062.306650) vcan0 240#0000
(1763994062.319505) vcan0 123#0C20
(1763994062.340595) vcan0 123#0C20
(1763994062.341116) vcan0 310#00000000
(1763994062.356695) vcan0 500#0D0E0F10
(1763994062.357656) vcan0 240#0000
(1763994062.361642) vcan0 123#0BB8
(1763994062.382608) vcan0 123#0BB8
(1763994062.403222) vcan0 123#0BB8
(1763994062.409514) vcan0 240#0000
(1763994062.423935) vcan0 123#0BB8
(1763994062.443115) vcan0 310#00000000
(1763994062.444236) vcan0 123#0C50
(1763994062.460230) vcan0 240#0000
(1763994062.464770) vcan0 123#0C50
(1763994062.485241) vcan0 123#0C50
(1763994062.506320) vcan0 123#0C50
(1763994062.511828) vcan0 240#0000
(1763994062.527242) vcan0 123#0C50
(1763994062.545709) vcan0 310#00000000
(1763994062.548148) vcan0 123#0C5C
(1763994062.563143) vcan0 240#0000
(1763994062.568771) vcan0 123#0C5C
(1763994062.589847) vcan0 123#0C5C
(1763994062.610783) vcan0 123#0C5C
(1763994062.614326) vcan0 240#0000
(1763994062.631415) vcan0 123#0C5C
(1763994062.647783) vcan0 310#00000000
(1763994062.652474) vcan0 123#0C18
(1763994062.665382) vcan0 240#0000
(1763994062.673385) vcan0 123#0C18
(1763994062.694391) vcan0 123#0C18
(1763994062.715144) vcan0 123#0C18
(1763994062.716771) vcan0 240#0000
(1763994062.736041) vcan0 123#0C18
(1763994062.749986) vcan0 310#00000000
(1763994062.756883) vcan0 123#0C04
(1763994062.768040) vcan0 240#0000
(1763994062.777783) vcan0 123#0C04
(1763994062.798667) vcan0 123#0C04
(1763994062.819445) vcan0 240#0000
(1763994062.819687) vcan0 123#0C04
(1763994062.840640) vcan0 123#0C04
(1763994062.851898) vcan0 310#00000000
(1763994062.861838) vcan0 123#0C10
(1763994062.870732) vcan0 240#0000
(1763994062.882342) vcan0 123#0C10
(1763994062.903127) vcan0 123#0C10
(1763994062.922221) vcan0 240#0000
(1763994062.923950) vcan0 123#0C10
(1763994062.944645) vcan0 123#0C10
(1763994062.954119) vcan0 310#00000000
(1763994062.965501) vcan0 123#0C84
(1763994062.973506) vcan0 240#0000
(1763994062.986197) vcan0 123#0C84
(1763994063.007016) vcan0 123#0C84
(1763994063.024659) vcan0 240#0000
(1763994063.028032) vcan0 123#0C84
(1763994063.048483) vcan0 123#0C84
(1763994063.056393) vcan0 310#00000000
(1763994063.069243) vcan0 123#0C58
(1763994063.076155) vcan0 240#0000
(1763994063.089840) vcan0 123#0C58
(1763994063.111082) vcan0 123#0C58
(1763994063.127752) vcan0 240#0000
(1763994063.131971) vcan0 123#0C58
(1763994063.152887) vcan0 123#0C58
(1763994063.158727) vcan0 310#00000000
(1763994063.173707) vcan0 123#0C48
(1763994063.179231) vcan0 240#0000
(1763994063.194640) vcan0 123#0C48
(1763994063.215453) vcan0 123#0C48
(1763994063.230717) vcan0 240#0000
(1763994063.236654) vcan0 123#0C48
(1763994063.257009) vcan0 123#0C48
(1763994063.261023) vcan0 310#00000000
(1763994063.277807) vcan0 123#0C70
(1763994063.282099) vcan0 240#0000
(1763994063.298724) vcan0 123#0C70
(1763994063.319267) vcan0 123#0C70
(1763994063.332803) vcan0 240#0000
(1763994063.340171) vcan0 123#0C70
(1763994063.360960) vcan0 123#0C70
(1763994063.362890) vcan0 310#00000000
(1763994063.374788) vcan0 500#0D0E0F10
(1763994063.381908) vcan0 123#0BF4
(1763994063.384093) vcan0 240#0000
(1763994063.402867) vcan0 123#0BF4
(1763994063.423490) vcan0 123#0BF4
(1763994063.435048) vcan0 240#0000
(1763994063.444413) vcan0 123#0BF4
(1763994063.463418) vcan0 310#00000000
(1763994063.464880) vcan0 123#0CEC
(1763994063.485342) vcan0 123#0CEC
(1763994063.485583) vcan0 240#0000
(1763994063.505809) vcan0 123#0CEC
(1763994063.526285) vcan0 123#0CEC
(1763994063.536539) vcan0 240#0000
(1763994063.546759) vcan0 123#0CEC
(1763994063.565257) vcan0 310#00000000
(1763994063.567330) vcan0 123#0CC0
(1763994063.587550) vcan0 240#0000
(1763994063.587924) vcan0 123#0CC0
(1763994063.608922) vcan0 123#0CC0
(1763994063.629889) vcan0 123#0CC0
(1763994063.638871) vcan0 240#0000
(1763994063.650392) vcan0 123#0CC0
(1763994063.667734) vcan0 310#00000000
(1763994063.671281) vcan0 123#0C0C
(1763994063.690397) vcan0 240#0000
(1763994063.692160) vcan0 123#0C0C
(1763994063.712957) vcan0 123#0C0C
(1763994063.733734) vcan0 123#0C0C
(1763994063.741905) vcan0 240#0000
(1763994063.754615) vcan0 123#0C0C
(1763994063.769338) vcan0 310#00000000
(1763994063.775425) vcan0 123#0D48
(1763994063.793361) vcan0 240#0000
(1763994063.796378) vcan0 123#0D48
(1763994063.817438) vcan0 123#0D48
(1763994063.838305) vcan0 123#0D48
(1763994063.844748) vcan0 240#0000
(1763994063.859232) vcan0 123#0D48
(1763994063.871521) vcan0 310#00000000
(1763994063.879573) vcan0 123#0C78
(1763994063.896268) vcan0 240#0000
(1763994063.900749) vcan0 123#0C78
(1763994063.921284) vcan0 123#0C78
(1763994063.942245) vcan0 123#0C78
(1763994063.947773) vcan0 240#0000
(1763994063.963083) vcan0 123#0C78
(1763994063.973815) vcan0 310#00000000
(1763994063.983726) vcan0 123#0C78
(1763994063.998712) vcan0 240#0000
(1763994064.004117) vcan0 123#0C78
(1763994064.025328) vcan0 123#0C78
(1763994064.046211) vcan0 123#0C78
(1763994064.050033) vcan0 240#0000
(1763994064.067283) vcan0 123#0C78
(1763994064.075630) vcan0 310#00000000
(1763994064.087747) vcan0 123#0BEC
(1763994064.100934) vcan0 240#0000
(1763994064.108235) vcan0 123#0BEC
(1763994064.128806) vcan0 123#0BEC
(1763994064.149336) vcan0 123#0BEC
(1763994064.151967) vcan0 240#0000
(1763994064.169786) vcan0 123#0BEC
(1763994064.177554) vcan0 310#00000000
(1763994064.190152) vcan0 123#0BB8
(1763994064.202940) vcan0 240#0000
(1763994064.210636) vcan0 123#0BB8
(1763994064.231144) vcan0 123#0BB8
(1763994064.251647) vcan0 123#0BB8
(1763994064.253945) vcan0 240#0000
(1763994064.272721) vcan0 123#0BB8
(1763994064.280075) vcan0 310#00000000
(1763994064.293295) vcan0 123#0BE0
(1763994064.305108) vcan0 240#0000
(1763994064.314142) vcan0 123#0BE0
(1763994064.335044) vcan0 123#0BE0
(1763994064.355594) vcan0 240#0000
(1763994064.355937) vcan0 123#0BE0
(1763994064.376673) vcan0 123#0BE0
(1763994064.382441) vcan0 310#00000000
(1763994064.391524) vcan0 500#0D0E0F10
(1763994064.397302) vcan0 123#0C10
(1763994064.406992) vcan0 240#0000
(1763994064.418243) vcan0 123#0C10
(1763994064.439111) vcan0 123#0C10
(1763994064.458652) vcan0 240#0000
(1763994064.459593) vcan0 123#0C10
(1763994064.480305) vcan0 123#0C10
(1763994064.484671) vcan0 310#00000000
(1763994064.501339) vcan0 123#0C30
(1763994064.509851) vcan0 240#0000
(1763994064.521851) vcan0 123#0C30
(1763994064.542475) vcan0 123#0C30
(1763994064.560654) vcan0 240#0000
(1763994064.562954) vcan0 123#0C30
(1763994064.583915) vcan0 123#0C30
(1763994064.586814) vcan0 310#00000000
(1763994064.604658) vcan0 123#0C44
(1763994064.612056) vcan0 240#0000
(1763994064.625794) vcan0 123#0C44
(1763994064.646498) vcan0 123#0C44
(1763994064.663524) vcan0 240#0000
(1763994064.667407) vcan0 123#0C44
(1763994064.688171) vcan0 123#0C44
(1763994064.688812) vcan0 310#00000000
(1763994064.708880) vcan0 123#0C40
(1763994064.714902) vcan0 240#0000
(1763994064.729863) vcan0 123#0C40
(1763994064.750524) vcan0 123#0C40
(1763994064.766166) vcan0 240#0000
(1763994064.771313) vcan0 123#0C40
(1763994064.791268) vcan0 310#00000000
(1763994064.792043) vcan0 123#0D04
(1763994064.813140) vcan0 123#0D04
(1763994064.817890) vcan0 240#0000
(1763994064.834088) vcan0 123#0D04
(1763994064.854991) vcan0 123#0D04
